date Mon Jan 01 00:00:00 2024
base hex  timestamps absolute
// generated sample
Begin Triggerblock
   0.000000 Start of measurement
 0.000000 1  200             Rx   d 8 00 4B 82 00 00 00 00 00
 0.000000 1  202             Rx   d 4 00 00 00 00
 0.000000 1  203             Rx   d 8 80 00 00 00 00 00 00 00
 0.000000 1  201             Rx   d 8 F4 01 00 00 00 00 00 00
 0.000000 1  300             Rx   d 8 DE AD BE EF 00 00 00 00
 0.010000 1  200             Rx   d 8 C9 4B 82 01 00 00 00 00
 0.020000 1  200             Rx   d 8 92 4C 82 02 00 00 00 00
 0.020000 1  202             Rx   d 4 00 39 00 00
 0.030000 1  200             Rx   d 8 5B 4D 82 03 00 00 00 00
 0.040000 1  200             Rx   d 8 24 4E 82 04 00 00 00 00
 0.040000 1  202             Rx   d 4 00 71 00 00
 0.050000 1  200             Rx   d 8 EC 4E 82 00 00 00 00 00
 0.060000 1  200             Rx   d 8 B5 4F 83 01 00 00 00 00
 0.060000 1  202             Rx   d 4 00 AA 00 00
 0.070000 1  200             Rx   d 8 7D 50 83 02 00 00 00 00
 0.080000 1  200             Rx   d 8 44 51 83 03 00 00 00 00
 0.080000 1  202             Rx   d 4 00 E2 00 00
 0.090000 1  200             Rx   d 8 0C 52 83 04 00 00 00 00
 0.100000 1  200             Rx   d 8 D2 52 83 00 00 00 00 00
 0.100000 1  202             Rx   d 4 01 1A 00 00
 0.100000 1  203             Rx   d 8 80 00 00 00 00 00 00 00
 0.100000 1  201             Rx   d 8 58 02 00 80 00 00 00 00
 0.110000 1  200             Rx   d 8 99 53 83 01 00 00 00 00
 0.120000 1  200             Rx   d 8 5E 54 83 02 00 00 00 00
 0.120000 1  202             Rx   d 4 01 53 00 00
 0.130000 1  200             Rx   d 8 24 55 83 03 00 00 00 00
 0.140000 1  200             Rx   d 8 E8 55 83 04 00 00 00 00
 0.140000 1  202             Rx   d 4 01 8B 00 00
 0.150000 1  200             Rx   d 8 AC 56 83 00 00 00 00 00
 0.160000 1  200             Rx   d 8 6F 57 84 01 00 00 00 00
 0.160000 1  202             Rx   d 4 01 C3 00 00
 0.170000 1  200             Rx   d 8 32 58 84 02 00 00 00 00
 0.180000 1  200             Rx   d 8 F3 58 84 03 00 00 00 00
 0.180000 1  202             Rx   d 4 01 FB 00 00
 0.190000 1  200             Rx   d 8 B4 59 84 04 00 00 00 00
 0.200000 1  200             Rx   d 8 73 5A 84 00 00 00 00 00
 0.200000 1  202             Rx   d 4 02 32 00 00
 0.200000 1  203             Rx   d 8 80 00 00 00 00 00 00 00
 0.200000 1  201             Rx   d 8 BB 02 00 80 00 00 00 00
 0.210000 1  200             Rx   d 8 32 5B 84 01 00 00 00 00
 0.220000 1  200             Rx   d 8 F0 5B 84 02 00 00 00 00
 0.220000 1  202             Rx   d 4 02 6A 00 00
 0.230000 1  200             Rx   d 8 AC 5C 84 03 00 00 00 00
 0.240000 1  200             Rx   d 8 68 5D 84 04 00 00 00 00
 0.240000 1  202             Rx   d 4 02 A1 00 00
 0.250000 1  200             Rx   d 8 22 5E 84 00 00 00 00 00
 0.260000 1  200             Rx   d 8 DB 5E 84 01 00 00 00 00
 0.260000 1  202             Rx   d 4 02 D8 00 00
 0.270000 1  200             Rx   d 8 93 5F 85 02 00 00 00 00
 0.280000 1  200             Rx   d 8 4A 60 85 03 00 00 00 00
 0.280000 1  202             Rx   d 4 03 0F 00 00
 0.290000 1  200             Rx   d 8 FF 60 85 04 00 00 00 00
 0.300000 1  200             Rx   d 8 B3 61 85 00 00 00 00 00
 0.300000 1  202             Rx   d 4 03 45 00 00
 0.300000 1  203             Rx   d 8 80 00 00 00 00 00 00 00
 0.300000 1  201             Rx   d 8 1A 03 00 80 00 00 00 00
 0.310000 1  200             Rx   d 8 66 62 85 01 00 00 00 00
 0.320000 1  200             Rx   d 8 16 63 85 02 00 00 00 00
 0.320000 1  202             Rx   d 4 03 7B 00 00
 0.330000 1  200             Rx   d 8 C6 63 85 03 00 00 00 00
 0.340000 1  200             Rx   d 8 74 64 85 04 00 00 00 00
 0.340000 1  202             Rx   d 4 03 B1 00 00
 0.350000 1  200             Rx   d 8 20 65 85 00 00 00 00 00
 0.360000 1  200             Rx   d 8 CB 65 85 01 00 00 00 00
 0.360000 1  202             Rx   d 4 03 E6 00 00
 0.370000 1  200             Rx   d 8 73 66 85 02 00 00 00 00
 0.380000 1  200             Rx   d 8 1B 67 86 03 00 00 00 00
 0.380000 1  202             Rx   d 4 04 1C 00 00
 0.390000 1  200             Rx   d 8 C0 67 86 04 00 00 00 00
 0.400000 1  200             Rx   d 8 64 68 86 00 00 00 00 00
 0.400000 1  202             Rx   d 4 04 50 00 00
 0.400000 1  203             Rx   d 8 80 00 00 00 00 00 00 00
 0.400000 1  201             Rx   d 8 75 03 00 80 00 00 00 00
 0.410000 1  200             Rx   d 8 05 69 86 01 00 00 00 00
 0.420000 1  200             Rx   d 8 A5 69 86 02 00 00 00 00
 0.420000 1  202             Rx   d 4 04 85 00 00
 0.430000 1  200             Rx   d 8 43 6A 86 03 00 00 00 00
 0.440000 1  200             Rx   d 8 DF 6A 86 04 00 00 00 00
 0.440000 1  202             Rx   d 4 04 B9 00 00
 0.450000 1  200             Rx   d 8 79 6B 86 00 00 00 00 00
 0.460000 1  200             Rx   d 8 11 6C 86 01 00 00 00 00
 0.460000 1  202             Rx   d 4 04 EC 00 00
 0.470000 1  200             Rx   d 8 A7 6C 86 02 00 00 00 00
 0.480000 1  200             Rx   d 8 3A 6D 86 03 00 00 00 00
 0.480000 1  202             Rx   d 4 05 1F 00 00
 0.490000 1  200             Rx   d 8 CC 6D 87 04 00 00 00 00
 0.500000 1  200             Rx   d 8 5B 6E 87 00 00 00 00 00
 0.500000 1  202             Rx   d 4 05 52 00 00
 0.500000 1  203             Rx   d 8 80 00 00 00 00 00 00 00
 0.500000 1  201             Rx   d 8 CA 03 00 80 00 00 00 00
 0.500000 1  300             Rx   d 8 DE AD BE EF 00 00 00 00
 0.510000 1  200             Rx   d 8 E8 6E 87 01 00 00 00 00
 0.520000 1  200             Rx   d 8 73 6F 87 02 00 00 00 00
 0.520000 1  202             Rx   d 4 05 84 00 00
 0.530000 1  200             Rx   d 8 FB 6F 87 03 00 00 00 00
 0.540000 1  200             Rx   d 8 81 70 87 04 00 00 00 00
 0.540000 1  202             Rx   d 4 05 B6 00 00
 0.550000 1  200             Rx   d 8 05 71 87 00 00 00 00 00
 0.560000 1  200             Rx   d 8 87 71 87 01 00 00 00 00
 0.560000 1  202             Rx   d 4 05 E7 00 00
 0.570000 1  200             Rx   d 8 06 72 87 02 00 00 00 00
 0.580000 1  200             Rx   d 8 82 72 87 03 00 00 00 00
 0.580000 1  202             Rx   d 4 06 17 00 00
 0.590000 1  200             Rx   d 8 FC 72 87 04 00 00 00 00
 0.600000 1  200             Rx   d 8 73 73 88 00 00 00 00 00
 0.600000 1  202             Rx   d 4 06 47 00 00
 0.600000 1  203             Rx   d 8 80 00 00 00 00 00 00 00
 0.600000 1  201             Rx   d 8 18 04 00 80 00 00 00 00
 0.610000 1  200             Rx   d 8 E8 73 88 01 00 00 00 00
 0.620000 1  200             Rx   d 8 5B 74 88 02 00 00 00 00
 0.620000 1  202             Rx   d 4 06 77 00 00
 0.630000 1  200             Rx   d 8 CA 74 88 03 00 00 00 00
 0.640000 1  200             Rx   d 8 37 75 88 04 00 00 00 00
 0.640000 1  202             Rx   d 4 06 A6 00 00
 0.650000 1  200             Rx   d 8 A2 75 88 00 00 00 00 00
 0.660000 1  200             Rx   d 8 09 76 88 01 00 00 00 00
 0.660000 1  202             Rx   d 4 06 D4 00 00
 0.670000 1  200             Rx   d 8 6E 76 88 02 00 00 00 00
 0.680000 1  200             Rx   d 8 D1 76 88 03 00 00 00 00
 0.680000 1  202             Rx   d 4 07 02 00 00
 0.690000 1  200             Rx   d 8 30 77 88 04 00 00 00 00
 0.700000 1  200             Rx   d 8 8D 77 88 00 00 00 00 00
 0.700000 1  202             Rx   d 4 07 2F 00 00
 0.700000 1  203             Rx   d 8 80 00 00 00 00 00 00 00
 0.700000 1  201             Rx   d 8 5C 04 00 80 00 00 00 00
 0.710000 1  200             Rx   d 8 E7 77 88 01 00 00 00 00
 0.720000 1  200             Rx   d 8 3E 78 89 02 00 00 00 00
 0.720000 1  202             Rx   d 4 07 5B 00 00
 0.730000 1  200             Rx   d 8 92 78 89 03 00 00 00 00
 0.740000 1  200             Rx   d 8 E3 78 89 04 00 00 00 00
 0.740000 1  202             Rx   d 4 07 87 00 00
 0.750000 1  200             Rx   d 8 32 79 89 00 00 00 00 00
 0.760000 1  200             Rx   d 8 7D 79 89 01 00 00 00 00
 0.760000 1  202             Rx   d 4 07 B2 00 00
 0.770000 1  200             Rx   d 8 C6 79 89 02 00 00 00 00
 0.780000 1  200             Rx   d 8 0B 7A 89 03 00 00 00 00
 0.780000 1  202             Rx   d 4 07 DC 00 00
 0.790000 1  200             Rx   d 8 4E 7A 89 04 00 00 00 00
 0.800000 1  200             Rx   d 8 8E 7A 89 00 00 00 00 00
 0.800000 1  202             Rx   d 4 08 06 00 00
 0.800000 1  203             Rx   d 8 80 00 00 00 00 00 00 00
 0.800000 1  201             Rx   d 8 97 04 00 80 00 00 00 00
 0.810000 1  200             Rx   d 8 CA 7A 89 01 00 00 00 00
 0.820000 1  200             Rx   d 8 04 7B 89 02 00 00 00 00
 0.820000 1  202             Rx   d 4 08 2E 00 00
 0.830000 1  200             Rx   d 8 3A 7B 89 03 00 00 00 00
 0.840000 1  200             Rx   d 8 6E 7B 8A 04 00 00 00 00
 0.840000 1  202             Rx   d 4 08 57 00 00
 0.850000 1  200             Rx   d 8 9E 7B 8A 00 00 00 00 00
 0.860000 1  200             Rx   d 8 CC 7B 8A 01 00 00 00 00
 0.860000 1  202             Rx   d 4 08 7E 00 00
 0.870000 1  200             Rx   d 8 F6 7B 8A 02 00 00 00 00
 0.880000 1  200             Rx   d 8 1D 7C 8A 03 00 00 00 00
 0.880000 1  202             Rx   d 4 08 A5 00 00
 0.890000 1  200             Rx   d 8 41 7C 8A 04 00 00 00 00
 0.900000 1  200             Rx   d 8 62 7C 8A 00 00 00 00 00
 0.900000 1  202             Rx   d 4 08 CA 00 00
 0.900000 1  203             Rx   d 8 80 00 00 00 00 00 00 00
 0.900000 1  201             Rx   d 8 C8 04 00 80 00 00 00 00
 0.910000 1  200             Rx   d 8 80 7C 8A 01 00 00 00 00
 0.920000 1  200             Rx   d 8 9B 7C 8A 02 00 00 00 00
 0.920000 1  202             Rx   d 4 08 EF 00 00
 0.930000 1  200             Rx   d 8 B3 7C 8A 03 00 00 00 00
 0.940000 1  200             Rx   d 8 C7 7C 8A 04 00 00 00 00
 0.940000 1  202             Rx   d 4 09 14 00 00
 0.950000 1  200             Rx   d 8 D9 7C 8A 00 00 00 00 00
 0.960000 1  200             Rx   d 8 E7 7C 8B 01 00 00 00 00
 0.960000 1  202             Rx   d 4 09 37 00 00
 0.970000 1  200             Rx   d 8 F2 7C 8B 02 00 00 00 00
 0.980000 1  200             Rx   d 8 FA 7C 8B 03 00 00 00 00
 0.980000 1  202             Rx   d 4 09 59 00 00
 0.990000 1  200             Rx   d 8 FE 7C 8B 04 00 00 00 00
 1.000000 1  200             Rx   d 8 00 7D 8B 00 00 00 00 00
 1.000000 1  202             Rx   d 4 09 7B 00 00
 1.000000 1  203             Rx   d 8 80 00 00 00 00 00 00 00
 1.000000 1  201             Rx   d 8 ED 04 00 80 00 00 00 00
 1.000000 1  300             Rx   d 8 DE AD BE EF 00 00 00 00
 1.010000 1  200             Rx   d 8 FE 7C 8B 01 00 00 00 00
 1.020000 1  200             Rx   d 8 FA 7C 8B 02 00 00 00 00
 1.020000 1  202             Rx   d 4 09 9C 00 00
 1.030000 1  200             Rx   d 8 F2 7C 8B 03 00 00 00 00
 1.040000 1  200             Rx   d 8 E7 7C 8B 04 00 00 00 00
 1.040000 1  202             Rx   d 4 09 BC 00 00
 1.050000 1  200             Rx   d 8 D9 7C 8B 00 00 00 00 00
 1.060000 1  200             Rx   d 8 C7 7C 8B 01 00 00 00 00
 1.060000 1  202             Rx   d 4 09 DB 00 00
 1.070000 1  200             Rx   d 8 B3 7C 8B 02 00 00 00 00
 1.080000 1  200             Rx   d 8 9B 7C 8B 03 00 00 00 00
 1.080000 1  202             Rx   d 4 09 F9 00 00
 1.090000 1  200             Rx   d 8 80 7C 8B 04 00 00 00 00
 1.100000 1  200             Rx   d 8 62 7C 8C 00 00 00 00 00
 1.100000 1  202             Rx   d 4 0A 16 00 00
 1.100000 1  203             Rx   d 8 80 00 00 00 00 00 00 00
 1.100000 1  201             Rx   d 8 06 05 00 80 00 00 00 00
 1.110000 1  200             Rx   d 8 41 7C 8C 01 00 00 00 00
 1.120000 1  200             Rx   d 8 1D 7C 8C 02 00 00 00 00
 1.120000 1  202             Rx   d 4 0A 33 00 00
 1.130000 1  200             Rx   d 8 F6 7B 8C 03 00 00 00 00
 1.140000 1  200             Rx   d 8 CC 7B 8C 04 00 00 00 00
 1.140000 1  202             Rx   d 4 0A 4E 00 00
 1.150000 1  200             Rx   d 8 9E 7B 8C 00 00 00 00 00
 1.160000 1  200             Rx   d 8 6E 7B 8C 01 00 00 00 00
 1.160000 1  202             Rx   d 4 0A 68 00 00
 1.170000 1  200             Rx   d 8 3A 7B 8C 02 00 00 00 00
 1.180000 1  200             Rx   d 8 04 7B 8C 03 00 00 00 00
 1.180000 1  202             Rx   d 4 0A 82 00 00
 1.190000 1  200             Rx   d 8 CA 7A 8C 04 00 00 00 00
 1.200000 1  200             Rx   d 8 8E 7A 8C 00 00 00 00 00
 1.200000 1  202             Rx   d 4 0A 9A 00 00
 1.200000 1  203             Rx   d 8 80 00 00 00 00 00 00 00
 1.200000 1  201             Rx   d 8 12 05 00 80 00 00 00 00
 1.210000 1  200             Rx   d 8 4E 7A 8C 01 00 00 00 00
 1.220000 1  200             Rx   d 8 0B 7A 8C 02 00 00 00 00
 1.220000 1  202             Rx   d 4 0A B2 00 00
 1.230000 1  200             Rx   d 8 C6 79 8C 03 00 00 00 00
 1.240000 1  200             Rx   d 8 7D 79 8D 04 00 00 00 00
 1.240000 1  202             Rx   d 4 0A C9 00 00
 1.250000 1  200             Rx   d 8 32 79 8D 00 00 00 00 00
 1.260000 1  200             Rx   d 8 E3 78 8D 01 00 00 00 00
 1.260000 1  202             Rx   d 4 0A DE 00 00
 1.270000 1  200             Rx   d 8 92 78 8D 02 00 00 00 00
 1.280000 1  200             Rx   d 8 3E 78 8D 03 00 00 00 00
 1.280000 1  202             Rx   d 4 0A F3 00 00
 1.290000 1  200             Rx   d 8 E7 77 8D 04 00 00 00 00
 1.300000 1  200             Rx   d 8 8D 77 8D 00 00 00 00 00
 1.300000 1  202             Rx   d 4 0B 07 00 00
 1.300000 1  203             Rx   d 8 80 00 00 00 00 00 00 00
 1.300000 1  201             Rx   d 8 12 05 00 80 00 00 00 00
 1.310000 1  200             Rx   d 8 30 77 8D 01 00 00 00 00
 1.320000 1  200             Rx   d 8 D1 76 8D 02 00 00 00 00
 1.320000 1  202             Rx   d 4 0B 19 00 00
 1.330000 1  200             Rx   d 8 6E 76 8D 03 00 00 00 00
 1.340000 1  200             Rx   d 8 09 76 8D 04 00 00 00 00
 1.340000 1  202             Rx   d 4 0B 2B 00 00
 1.350000 1  200             Rx   d 8 A2 75 8D 00 00 00 00 00
 1.360000 1  200             Rx   d 8 37 75 8D 01 00 00 00 00
 1.360000 1  202             Rx   d 4 0B 3C 00 00
 1.370000 1  200             Rx   d 8 CA 74 8D 02 00 00 00 00
 1.380000 1  200             Rx   d 8 5B 74 8D 03 00 00 00 00
 1.380000 1  202             Rx   d 4 0B 4B 00 00
 1.390000 1  200             Rx   d 8 E8 73 8D 04 00 00 00 00
 1.400000 1  200             Rx   d 8 73 73 8E 00 00 00 00 00
 1.400000 1  202             Rx   d 4 0B 5A 00 00
 1.400000 1  203             Rx   d 8 80 00 00 00 00 00 00 00
 1.400000 1  201             Rx   d 8 06 05 00 80 00 00 00 00
 1.410000 1  200             Rx   d 8 FC 72 8E 01 00 00 00 00
 1.420000 1  200             Rx   d 8 82 72 8E 02 00 00 00 00
 1.420000 1  202             Rx   d 4 0B 67 00 00
 1.430000 1  200             Rx   d 8 06 72 8E 03 00 00 00 00
 1.440000 1  200             Rx   d 8 87 71 8E 04 00 00 00 00
 1.440000 1  202             Rx   d 4 0B 74 00 00
 1.450000 1  200             Rx   d 8 05 71 8E 00 00 00 00 00
 1.460000 1  200             Rx   d 8 81 70 8E 01 00 00 00 00
 1.460000 1  202             Rx   d 4 0B 7F 00 00
 1.470000 1  200             Rx   d 8 FB 6F 8E 02 00 00 00 00
 1.480000 1  200             Rx   d 8 73 6F 8E 03 00 00 00 00
 1.480000 1  202             Rx   d 4 0B 8A 00 00
 1.490000 1  200             Rx   d 8 E8 6E 8E 04 00 00 00 00
 1.500000 1  200             Rx   d 8 5B 6E 8E 00 00 00 00 00
 1.500000 1  202             Rx   d 4 0B 93 00 00
 1.500000 1  203             Rx   d 8 80 00 00 00 00 00 00 00
 1.500000 1  201             Rx   d 8 ED 04 00 80 00 00 00 00
 1.500000 1  300             Rx   d 8 DE AD BE EF 00 00 00 00
 1.510000 1  200             Rx   d 8 CC 6D 8E 01 00 00 00 00
 1.520000 1  200             Rx   d 8 3A 6D 8E 02 00 00 00 00
 1.520000 1  202             Rx   d 4 0B 9B 00 00
 1.530000 1  200             Rx   d 8 A7 6C 8E 03 00 00 00 00
 1.540000 1  200             Rx   d 8 11 6C 8E 04 00 00 00 00
 1.540000 1  202             Rx   d 4 0B A3 00 00
 1.550000 1  200             Rx   d 8 79 6B 8E 00 00 00 00 00
 1.560000 1  200             Rx   d 8 DF 6A 8E 01 00 00 00 00
 1.560000 1  202             Rx   d 4 0B A9 00 00
 1.570000 1  200             Rx   d 8 43 6A 8F 02 00 00 00 00
 1.580000 1  200             Rx   d 8 A5 69 8F 03 00 00 00 00
 1.580000 1  202             Rx   d 4 0B AE 00 00
 1.590000 1  200             Rx   d 8 05 69 8F 04 00 00 00 00
 1.600000 1  200             Rx   d 8 64 68 8F 00 00 00 00 00
 1.600000 1  202             Rx   d 4 0B B2 00 00
 1.600000 1  203             Rx   d 8 80 00 00 00 00 00 00 00
 1.600000 1  201             Rx   d 8 C8 04 00 80 00 00 00 00
 1.610000 1  200             Rx   d 8 C0 67 8F 01 00 00 00 00
 1.620000 1  200             Rx   d 8 1B 67 8F 02 00 00 00 00
 1.620000 1  202             Rx   d 4 0B B5 00 00
 1.630000 1  200             Rx   d 8 73 66 8F 03 00 00 00 00
 1.640000 1  200             Rx   d 8 CB 65 8F 04 00 00 00 00
 1.640000 1  202             Rx   d 4 0B B7 00 00
 1.650000 1  200             Rx   d 8 20 65 8F 00 00 00 00 00
 1.660000 1  200             Rx   d 8 74 64 8F 01 00 00 00 00
 1.660000 1  202             Rx   d 4 0B B8 00 00
 1.670000 1  200             Rx   d 8 C6 63 8F 02 00 00 00 00
 1.680000 1  200             Rx   d 8 16 63 8F 03 00 00 00 00
 1.680000 1  202             Rx   d 4 0B B8 00 00
 1.690000 1  200             Rx   d 8 66 62 8F 04 00 00 00 00
 1.700000 1  200             Rx   d 8 B3 61 8F 00 00 00 00 00
 1.700000 1  202             Rx   d 4 0B B7 00 00
 1.700000 1  203             Rx   d 8 80 00 00 00 00 00 00 00
 1.700000 1  201             Rx   d 8 97 04 00 80 00 00 00 00
 1.710000 1  200             Rx   d 8 FF 60 8F 01 00 00 00 00
 1.720000 1  200             Rx   d 8 4A 60 8F 02 00 00 00 00
 1.720000 1  202             Rx   d 4 0B B4 00 00
 1.730000 1  200             Rx   d 8 93 5F 8F 03 00 00 00 00
 1.740000 1  200             Rx   d 8 DB 5E 8F 04 00 00 00 00
 1.740000 1  202             Rx   d 4 0B B1 00 00
 1.750000 1  200             Rx   d 8 22 5E 8F 00 00 00 00 00
 1.760000 1  200             Rx   d 8 68 5D 8F 01 00 00 00 00
 1.760000 1  202             Rx   d 4 0B AC 00 00
 1.770000 1  200             Rx   d 8 AC 5C 8F 02 00 00 00 00
 1.780000 1  200             Rx   d 8 F0 5B 8F 03 00 00 00 00
 1.780000 1  202             Rx   d 4 0B A7 00 00
 1.790000 1  200             Rx   d 8 32 5B 90 04 00 00 00 00
 1.800000 1  200             Rx   d 8 73 5A 90 00 00 00 00 00
 1.800000 1  202             Rx   d 4 0B A0 00 00
 1.800000 1  203             Rx   d 8 80 00 00 00 00 00 00 00
 1.800000 1  201             Rx   d 8 5C 04 00 80 00 00 00 00
 1.810000 1  200             Rx   d 8 B4 59 90 01 00 00 00 00
 1.820000 1  200             Rx   d 8 F3 58 90 02 00 00 00 00
 1.820000 1  202             Rx   d 4 0B 99 00 00
 1.830000 1  200             Rx   d 8 32 58 90 03 00 00 00 00
 1.840000 1  200             Rx   d 8 6F 57 90 04 00 00 00 00
 1.840000 1  202             Rx   d 4 0B 90 00 00
 1.850000 1  200             Rx   d 8 AC 56 90 00 00 00 00 00
 1.860000 1  200             Rx   d 8 E8 55 90 01 00 00 00 00
 1.860000 1  202             Rx   d 4 0B 86 00 00
 1.870000 1  200             Rx   d 8 24 55 90 02 00 00 00 00
 1.880000 1  200             Rx   d 8 5E 54 90 03 00 00 00 00
 1.880000 1  202             Rx   d 4 0B 7C 00 00
 1.890000 1  200             Rx   d 8 99 53 90 04 00 00 00 00
 1.900000 1  200             Rx   d 8 D2 52 90 00 00 00 00 00
 1.900000 1  202             Rx   d 4 0B 70 00 00
 1.900000 1  203             Rx   d 8 80 00 00 00 00 00 00 00
 1.900000 1  201             Rx   d 8 18 04 00 80 00 00 00 00
 1.910000 1  200             Rx   d 8 0C 52 90 01 00 00 00 00
 1.920000 1  200             Rx   d 8 44 51 90 02 00 00 00 00
 1.920000 1  202             Rx   d 4 0B 63 00 00
 1.930000 1  200             Rx   d 8 7D 50 90 03 00 00 00 00
 1.940000 1  200             Rx   d 8 B5 4F 90 04 00 00 00 00
 1.940000 1  202             Rx   d 4 0B 55 00 00
 1.950000 1  200             Rx   d 8 EC 4E 90 00 00 00 00 00
 1.960000 1  200             Rx   d 8 24 4E 90 01 00 00 00 00
 1.960000 1  202             Rx   d 4 0B 46 00 00
 1.970000 1  200             Rx   d 8 5B 4D 90 02 00 00 00 00
 1.980000 1  200             Rx   d 8 92 4C 90 03 00 00 00 00
 1.980000 1  202             Rx   d 4 0B 36 00 00
 1.990000 1  200             Rx   d 8 C9 4B 90 04 00 00 00 00
 2.000000 1  200             Rx   d 8 00 4B 90 00 00 00 00 00
 2.000000 1  202             Rx   d 4 0B 25 00 00
 2.000000 1  203             Rx   d 8 80 00 00 00 00 00 00 00
 2.000000 1  201             Rx   d 8 CA 03 00 80 00 00 00 00
 2.000000 1  300             Rx   d 8 DE AD BE EF 00 00 00 00
 2.010000 1  200             Rx   d 8 37 4A 90 01 00 00 00 00
 2.020000 1  200             Rx   d 8 6E 49 90 02 00 00 00 00
 2.020000 1  202             Rx   d 4 0B 13 00 00
 2.030000 1  200             Rx   d 8 A5 48 90 03 00 00 00 00
 2.040000 1  200             Rx   d 8 DC 47 90 04 00 00 00 00
 2.040000 1  202             Rx   d 4 0B 00 00 00
 2.050000 1  200             Rx   d 8 14 47 90 00 00 00 00 00
 2.060000 1  200             Rx   d 8 4B 46 90 01 00 00 00 00
 2.060000 1  202             Rx   d 4 0A EC 00 00
 2.070000 1  200             Rx   d 8 83 45 90 02 00 00 00 00
 2.080000 1  200             Rx   d 8 BC 44 90 03 00 00 00 00
 2.080000 1  202             Rx   d 4 0A D7 00 00
 2.090000 1  200             Rx   d 8 F4 43 91 04 00 00 00 00
 2.100000 1  200             Rx   d 8 2E 43 91 00 00 00 00 00
 2.100000 1  202             Rx   d 4 0A C1 00 00
 2.100000 1  203             Rx   d 8 80 00 00 00 00 00 00 00
 2.100000 1  201             Rx   d 8 75 03 00 80 00 00 00 00
 2.110000 1  200             Rx   d 8 67 42 91 01 00 00 00 00
 2.120000 1  200             Rx   d 8 A2 41 91 02 00 00 00 00
 2.120000 1  202             Rx   d 4 0A AA 00 00
 2.130000 1  200             Rx   d 8 DC 40 91 03 00 00 00 00
 2.140000 1  200             Rx   d 8 18 40 91 04 00 00 00 00
 2.140000 1  202             Rx   d 4 0A 92 00 00
 2.150000 1  200             Rx   d 8 54 3F 91 00 00 00 00 00
 2.160000 1  200             Rx   d 8 91 3E 91 01 00 00 00 00
 2.160000 1  202             Rx   d 4 0A 7A 00 00
 2.170000 1  200             Rx   d 8 CE 3D 91 02 00 00 00 00
 2.180000 1  200             Rx   d 8 0D 3D 91 03 00 00 00 00
 2.180000 1  202             Rx   d 4 0A 60 00 00
 2.190000 1  200             Rx   d 8 4C 3C 91 04 00 00 00 00
 2.200000 1  200             Rx   d 8 8D 3B 91 00 00 00 00 00
 2.200000 1  202             Rx   d 4 0A 45 00 00
 2.200000 1  203             Rx   d 8 80 00 00 00 00 00 00 00
 2.200000 1  201             Rx   d 8 1A 03 00 80 00 00 00 00
 2.210000 1  200             Rx   d 8 CE 3A 91 01 00 00 00 00
 2.220000 1  200             Rx   d 8 10 3A 91 02 00 00 00 00
 2.220000 1  202             Rx   d 4 0A 29 00 00
 2.230000 1  200             Rx   d 8 54 39 91 03 00 00 00 00
 2.240000 1  200             Rx   d 8 98 38 91 04 00 00 00 00
 2.240000 1  202             Rx   d 4 0A 0D 00 00
 2.250000 1  200             Rx   d 8 DE 37 91 00 00 00 00 00
 2.260000 1  200             Rx   d 8 25 37 91 01 00 00 00 00
 2.260000 1  202             Rx   d 4 09 EF 00 00
 2.270000 1  200             Rx   d 8 6D 36 91 02 00 00 00 00
 2.280000 1  200             Rx   d 8 B6 35 91 03 00 00 00 00
 2.280000 1  202             Rx   d 4 09 D1 00 00
 2.290000 1  200             Rx   d 8 01 35 91 04 00 00 00 00
 2.300000 1  200             Rx   d 8 4D 34 91 00 00 00 00 00
 2.300000 1  202             Rx   d 4 09 B1 00 00
 2.300000 1  203             Rx   d 8 80 00 00 00 00 00 00 00
 2.300000 1  201             Rx   d 8 BB 02 00 80 00 00 00 00
 2.310000 1  200             Rx   d 8 9A 33 91 01 00 00 00 00
 2.320000 1  200             Rx   d 8 EA 32 91 02 00 00 00 00
 2.320000 1  202             Rx   d 4 09 91 00 00
 2.330000 1  200             Rx   d 8 3A 32 91 03 00 00 00 00
 2.340000 1  200             Rx   d 8 8C 31 91 04 00 00 00 00
 2.340000 1  202             Rx   d 4 09 70 00 00
 2.350000 1  200             Rx   d 8 E0 30 91 00 00 00 00 00
 2.360000 1  200             Rx   d 8 35 30 91 01 00 00 00 00
 2.360000 1  202             Rx   d 4 09 4E 00 00
 2.370000 1  200             Rx   d 8 8D 2F 91 02 00 00 00 00
 2.380000 1  200             Rx   d 8 E5 2E 91 03 00 00 00 00
 2.380000 1  202             Rx   d 4 09 2B 00 00
 2.390000 1  200             Rx   d 8 40 2E 91 04 00 00 00 00
 2.400000 1  200             Rx   d 8 9C 2D 91 00 00 00 00 00
 2.400000 1  202             Rx   d 4 09 08 00 00
 2.400000 1  203             Rx   d 8 80 00 00 00 00 00 00 00
 2.400000 1  201             Rx   d 8 58 02 00 80 00 00 00 00
 2.410000 1  200             Rx   d 8 FB 2C 91 01 00 00 00 00
 2.420000 1  200             Rx   d 8 5B 2C 91 02 00 00 00 00
 2.420000 1  202             Rx   d 4 08 E3 00 00
 2.430000 1  200             Rx   d 8 BD 2B 91 03 00 00 00 00
 2.440000 1  200             Rx   d 8 21 2B 91 04 00 00 00 00
 2.440000 1  202             Rx   d 4 08 BE 00 00
 2.450000 1  200             Rx   d 8 87 2A 91 00 00 00 00 00
 2.460000 1  200             Rx   d 8 EF 29 91 01 00 00 00 00
 2.460000 1  202             Rx   d 4 08 98 00 00
 2.470000 1  200             Rx   d 8 59 29 91 02 00 00 00 00
 2.480000 1  200             Rx   d 8 C6 28 91 03 00 00 00 00
 2.480000 1  202             Rx   d 4 08 71 00 00
 2.490000 1  200             Rx   d 8 34 28 91 04 00 00 00 00
 2.500000 1  200             Rx   d 8 A5 27 91 00 00 00 00 00
 2.500000 1  202             Rx   d 4 08 49 00 00
 2.500000 1  203             Rx   d 8 80 00 00 00 00 00 00 00
 2.500000 1  201             Rx   d 8 F4 01 00 80 00 00 00 00
 2.500000 1  300             Rx   d 8 DE AD BE EF 00 00 00 00
 2.510000 1  200             Rx   d 8 18 27 91 01 00 00 00 00
 2.520000 1  200             Rx   d 8 8D 26 91 02 00 00 00 00
 2.520000 1  202             Rx   d 4 08 21 00 00
 2.530000 1  200             Rx   d 8 05 26 91 03 00 00 00 00
 2.540000 1  200             Rx   d 8 7F 25 91 04 00 00 00 00
 2.540000 1  202             Rx   d 4 07 F8 00 00
 2.550000 1  200             Rx   d 8 FB 24 91 00 00 00 00 00
 2.560000 1  200             Rx   d 8 79 24 91 01 00 00 00 00
 2.560000 1  202             Rx   d 4 07 CE 00 00
 2.570000 1  200             Rx   d 8 FA 23 91 02 00 00 00 00
 2.580000 1  200             Rx   d 8 7E 23 91 03 00 00 00 00
 2.580000 1  202             Rx   d 4 07 A4 00 00
 2.590000 1  200             Rx   d 8 04 23 91 04 00 00 00 00
 2.600000 1  200             Rx   d 8 8D 22 91 00 00 00 00 00
 2.600000 1  202             Rx   d 4 07 78 00 00
 2.600000 1  203             Rx   d 8 80 00 00 00 00 00 00 00
 2.600000 1  201             Rx   d 8 F4 01 00 00 00 00 00 00
 2.610000 1  200             Rx   d 8 18 22 91 01 00 00 00 00
 2.620000 1  200             Rx   d 8 A5 21 91 02 00 00 00 00
 2.620000 1  202             Rx   d 4 07 4C 00 00
 2.630000 1  200             Rx   d 8 36 21 91 03 00 00 00 00
 2.640000 1  200             Rx   d 8 C9 20 91 04 00 00 00 00
 2.640000 1  202             Rx   d 4 07 20 00 00
 2.650000 1  200             Rx   d 8 5E 20 91 00 00 00 00 00
 2.660000 1  200             Rx   d 8 F7 1F 91 01 00 00 00 00
 2.660000 1  202             Rx   d 4 06 F3 00 00
 2.670000 1  200             Rx   d 8 92 1F 91 02 00 00 00 00
 2.680000 1  200             Rx   d 8 2F 1F 91 03 00 00 00 00
 2.680000 1  202             Rx   d 4 06 C5 00 00
 2.690000 1  200             Rx   d 8 D0 1E 91 04 00 00 00 00
 2.700000 1  200             Rx   d 8 73 1E 91 00 00 00 00 00
 2.700000 1  202             Rx   d 4 06 96 00 00
 2.700000 1  203             Rx   d 8 80 00 00 00 00 00 00 00
 2.700000 1  201             Rx   d 8 F4 01 00 00 00 00 00 00
 2.710000 1  200             Rx   d 8 19 1E 91 01 00 00 00 00
 2.720000 1  200             Rx   d 8 C2 1D 91 02 00 00 00 00
 2.720000 1  202             Rx   d 4 06 67 00 00
 2.730000 1  200             Rx   d 8 6E 1D 91 03 00 00 00 00
 2.740000 1  200             Rx   d 8 1D 1D 91 04 00 00 00 00
 2.740000 1  202             Rx   d 4 06 38 00 00
 2.750000 1  200             Rx   d 8 CE 1C 91 00 00 00 00 00
 2.760000 1  200             Rx   d 8 83 1C 91 01 00 00 00 00
 2.760000 1  202             Rx   d 4 06 07 00 00
 2.770000 1  200             Rx   d 8 3A 1C 91 02 00 00 00 00
 2.780000 1  200             Rx   d 8 F5 1B 91 03 00 00 00 00
 2.780000 1  202             Rx   d 4 05 D7 00 00
 2.790000 1  200             Rx   d 8 B2 1B 91 04 00 00 00 00
 2.800000 1  200             Rx   d 8 72 1B 91 00 00 00 00 00
 2.800000 1  202             Rx   d 4 05 A5 00 00
 2.800000 1  203             Rx   d 8 80 00 00 00 00 00 00 00
 2.800000 1  201             Rx   d 8 F4 01 00 00 00 00 00 00
 2.810000 1  200             Rx   d 8 36 1B 91 01 00 00 00 00
 2.820000 1  200             Rx   d 8 FC 1A 91 02 00 00 00 00
 2.820000 1  202             Rx   d 4 05 73 00 00
 2.830000 1  200             Rx   d 8 C6 1A 91 03 00 00 00 00
 2.840000 1  200             Rx   d 8 92 1A 91 04 00 00 00 00
 2.840000 1  202             Rx   d 4 05 41 00 00
 2.850000 1  200             Rx   d 8 62 1A 91 00 00 00 00 00
 2.860000 1  200             Rx   d 8 34 1A 91 01 00 00 00 00
 2.860000 1  202             Rx   d 4 05 0E 00 00
 2.870000 1  200             Rx   d 8 0A 1A 91 02 00 00 00 00
 2.880000 1  200             Rx   d 8 E3 19 91 03 00 00 00 00
 2.880000 1  202             Rx   d 4 04 DB 00 00
 2.890000 1  200             Rx   d 8 BF 19 91 04 00 00 00 00
 2.900000 1  200             Rx   d 8 9E 19 91 00 00 00 00 00
 2.900000 1  202             Rx   d 4 04 A7 00 00
 2.900000 1  203             Rx   d 8 80 00 00 00 00 00 00 00
 2.900000 1  201             Rx   d 8 F4 01 00 00 00 00 00 00
 2.910000 1  200             Rx   d 8 80 19 91 01 00 00 00 00
 2.920000 1  200             Rx   d 8 65 19 90 02 00 00 00 00
 2.920000 1  202             Rx   d 4 04 73 00 00
 2.930000 1  200             Rx   d 8 4D 19 90 03 00 00 00 00
 2.940000 1  200             Rx   d 8 39 19 90 04 00 00 00 00
 2.940000 1  202             Rx   d 4 04 3F 00 00
 2.950000 1  200             Rx   d 8 27 19 90 00 00 00 00 00
 2.960000 1  200             Rx   d 8 19 19 90 01 00 00 00 00
 2.960000 1  202             Rx   d 4 04 0A 00 00
 2.970000 1  200             Rx   d 8 0E 19 90 02 00 00 00 00
 2.980000 1  200             Rx   d 8 06 19 90 03 00 00 00 00
 2.980000 1  202             Rx   d 4 03 D5 00 00
 2.990000 1  200             Rx   d 8 02 19 90 04 00 00 00 00
 3.000000 1  200             Rx   d 8 00 19 90 00 00 00 00 00
 3.000000 1  202             Rx   d 4 03 9F 00 00
 3.000000 1  203             Rx   d 8 80 00 00 00 00 00 00 00
 3.000000 1  201             Rx   d 8 F4 01 00 00 00 00 00 00
 3.000000 1  300             Rx   d 8 DE AD BE EF 00 00 00 00
 3.010000 1  200             Rx   d 8 02 19 90 01 00 00 00 00
 3.020000 1  200             Rx   d 8 06 19 90 02 00 00 00 00
 3.020000 1  202             Rx   d 4 03 69 00 00
 3.030000 1  200             Rx   d 8 0E 19 90 03 00 00 00 00
 3.040000 1  200             Rx   d 8 19 19 90 04 00 00 00 00
 3.040000 1  202             Rx   d 4 03 33 00 00
 3.050000 1  200             Rx   d 8 27 19 90 00 00 00 00 00
 3.060000 1  200             Rx   d 8 39 19 90 01 00 00 00 00
 3.060000 1  202             Rx   d 4 02 FC 00 00
 3.070000 1  200             Rx   d 8 4D 19 90 02 00 00 00 00
 3.080000 1  200             Rx   d 8 65 19 90 03 00 00 00 00
 3.080000 1  202             Rx   d 4 02 C5 00 00
 3.090000 1  200             Rx   d 8 80 19 90 04 00 00 00 00
 3.100000 1  200             Rx   d 8 9E 19 90 00 00 00 00 00
 3.100000 1  202             Rx   d 4 02 8E 00 00
 3.100000 1  203             Rx   d 8 80 00 00 00 00 00 00 00
 3.100000 1  201             Rx   d 8 F4 01 00 00 00 00 00 00
 3.110000 1  200             Rx   d 8 BF 19 90 01 00 00 00 00
 3.120000 1  200             Rx   d 8 E3 19 90 02 00 00 00 00
 3.120000 1  202             Rx   d 4 02 57 00 00
 3.130000 1  200             Rx   d 8 0A 1A 90 03 00 00 00 00
 3.140000 1  200             Rx   d 8 34 1A 90 04 00 00 00 00
 3.140000 1  202             Rx   d 4 02 20 00 00
 3.150000 1  200             Rx   d 8 62 1A 90 00 00 00 00 00
 3.160000 1  200             Rx   d 8 92 1A 90 01 00 00 00 00
 3.160000 1  202             Rx   d 4 01 E8 00 00
 3.170000 1  200             Rx   d 8 C6 1A 90 02 00 00 00 00
 3.180000 1  200             Rx   d 8 FC 1A 90 03 00 00 00 00
 3.180000 1  202             Rx   d 4 01 B0 00 00
 3.190000 1  200             Rx   d 8 36 1B 90 04 00 00 00 00
 3.200000 1  200             Rx   d 8 72 1B 90 00 00 00 00 00
 3.200000 1  202             Rx   d 4 01 78 00 00
 3.200000 1  203             Rx   d 8 80 00 00 00 00 00 00 00
 3.200000 1  201             Rx   d 8 F4 01 00 00 00 00 00 00
 3.210000 1  200             Rx   d 8 B2 1B 90 01 00 00 00 00
 3.220000 1  200             Rx   d 8 F5 1B 8F 02 00 00 00 00
 3.220000 1  202             Rx   d 4 01 40 00 00
 3.230000 1  200             Rx   d 8 3A 1C 8F 03 00 00 00 00
 3.240000 1  200             Rx   d 8 83 1C 8F 04 00 00 00 00
 3.240000 1  202             Rx   d 4 01 08 00 00
 3.250000 1  200             Rx   d 8 CE 1C 8F 00 00 00 00 00
 3.260000 1  200             Rx   d 8 1D 1D 8F 01 00 00 00 00
 3.260000 1  202             Rx   d 4 00 CF 00 00
 3.270000 1  200             Rx   d 8 6E 1D 8F 02 00 00 00 00
 3.280000 1  200             Rx   d 8 C2 1D 8F 03 00 00 00 00
 3.280000 1  202             Rx   d 4 00 97 00 00
 3.290000 1  200             Rx   d 8 19 1E 8F 04 00 00 00 00
 3.300000 1  200             Rx   d 8 73 1E 8F 00 00 00 00 00
 3.300000 1  202             Rx   d 4 00 5E 00 00
 3.300000 1  203             Rx   d 8 80 00 00 00 00 00 00 00
 3.300000 1  201             Rx   d 8 F4 01 00 00 00 00 00 00
 3.310000 1  200             Rx   d 8 D0 1E 8F 01 00 00 00 00
 3.320000 1  200             Rx   d 8 2F 1F 8F 02 00 00 00 00
 3.320000 1  202             Rx   d 4 00 26 00 00
 3.330000 1  200             Rx   d 8 92 1F 8F 03 00 00 00 00
 3.340000 1  200             Rx   d 8 F7 1F 8F 04 00 00 00 00
 3.340000 1  202             Rx   d 4 FF ED 00 00
 3.350000 1  200             Rx   d 8 5E 20 8F 00 00 00 00 00
 3.360000 1  200             Rx   d 8 C9 20 8F 01 00 00 00 00
 3.360000 1  202             Rx   d 4 FF B5 00 00
 3.370000 1  200             Rx   d 8 36 21 8F 02 00 00 00 00
 3.380000 1  200             Rx   d 8 A5 21 8F 03 00 00 00 00
 3.380000 1  202             Rx   d 4 FF 7C 00 00
 3.390000 1  200             Rx   d 8 18 22 8F 04 00 00 00 00
 3.400000 1  200             Rx   d 8 8D 22 8F 00 00 00 00 00
 3.400000 1  202             Rx   d 4 FF 44 00 00
 3.400000 1  203             Rx   d 8 80 00 00 00 00 00 00 00
 3.400000 1  201             Rx   d 8 F4 01 00 00 00 00 00 00
 3.410000 1  200             Rx   d 8 04 23 8F 01 00 00 00 00
 3.420000 1  200             Rx   d 8 7E 23 8F 02 00 00 00 00
 3.420000 1  202             Rx   d 4 FF 0B 00 00
 3.430000 1  200             Rx   d 8 FA 23 8F 03 00 00 00 00
 3.440000 1  200             Rx   d 8 79 24 8E 04 00 00 00 00
 3.440000 1  202             Rx   d 4 FE D3 00 00
 3.450000 1  200             Rx   d 8 FB 24 8E 00 00 00 00 00
 3.460000 1  200             Rx   d 8 7F 25 8E 01 00 00 00 00
 3.460000 1  202             Rx   d 4 FE 9B 00 00
 3.470000 1  200             Rx   d 8 05 26 8E 02 00 00 00 00
 3.480000 1  200             Rx   d 8 8D 26 8E 03 00 00 00 00
 3.480000 1  202             Rx   d 4 FE 63 00 00
 3.490000 1  200             Rx   d 8 18 27 8E 04 00 00 00 00
 3.500000 1  200             Rx   d 8 A5 27 8E 00 00 00 00 00
 3.500000 1  202             Rx   d 4 FE 2B 00 00
 3.500000 1  203             Rx   d 8 80 00 00 00 00 00 00 00
 3.500000 1  201             Rx   d 8 F4 01 00 00 00 00 00 00
 3.500000 1  300             Rx   d 8 DE AD BE EF 00 00 00 00
 3.510000 1  200             Rx   d 8 34 28 8E 01 00 00 00 00
 3.520000 1  200             Rx   d 8 C6 28 8E 02 00 00 00 00
 3.520000 1  202             Rx   d 4 FD F3 00 00
 3.530000 1  200             Rx   d 8 59 29 8E 03 00 00 00 00
 3.540000 1  200             Rx   d 8 EF 29 8E 04 00 00 00 00
 3.540000 1  202             Rx   d 4 FD BB 00 00
 3.550000 1  200             Rx   d 8 87 2A 8E 00 00 00 00 00
 3.560000 1  200             Rx   d 8 21 2B 8E 01 00 00 00 00
 3.560000 1  202             Rx   d 4 FD 84 00 00
 3.570000 1  200             Rx   d 8 BD 2B 8E 02 00 00 00 00
 3.580000 1  200             Rx   d 8 5B 2C 8E 03 00 00 00 00
 3.580000 1  202             Rx   d 4 FD 4D 00 00
 3.590000 1  200             Rx   d 8 FB 2C 8E 04 00 00 00 00
 3.600000 1  200             Rx   d 8 9C 2D 8E 00 00 00 00 00
 3.600000 1  202             Rx   d 4 FD 16 00 00
 3.600000 1  203             Rx   d 8 80 00 00 00 00 00 00 00
 3.600000 1  201             Rx   d 8 F4 01 00 00 00 00 00 00
 3.610000 1  200             Rx   d 8 40 2E 8D 01 00 00 00 00
 3.620000 1  200             Rx   d 8 E5 2E 8D 02 00 00 00 00
 3.620000 1  202             Rx   d 4 FC DF 00 00
 3.630000 1  200             Rx   d 8 8D 2F 8D 03 00 00 00 00
 3.640000 1  200             Rx   d 8 35 30 8D 04 00 00 00 00
 3.640000 1  202             Rx   d 4 FC A9 00 00
 3.650000 1  200             Rx   d 8 E0 30 8D 00 00 00 00 00
 3.660000 1  200             Rx   d 8 8C 31 8D 01 00 00 00 00
 3.660000 1  202             Rx   d 4 FC 73 00 00
 3.670000 1  200             Rx   d 8 3A 32 8D 02 00 00 00 00
 3.680000 1  200             Rx   d 8 EA 32 8D 03 00 00 00 00
 3.680000 1  202             Rx   d 4 FC 3D 00 00
 3.690000 1  200             Rx   d 8 9A 33 8D 04 00 00 00 00
 3.700000 1  200             Rx   d 8 4D 34 8D 00 00 00 00 00
 3.700000 1  202             Rx   d 4 FC 08 00 00
 3.700000 1  203             Rx   d 8 80 00 00 00 00 00 00 00
 3.700000 1  201             Rx   d 8 F4 01 00 00 00 00 00 00
 3.710000 1  200             Rx   d 8 01 35 8D 01 00 00 00 00
 3.720000 1  200             Rx   d 8 B6 35 8D 02 00 00 00 00
 3.720000 1  202             Rx   d 4 FB D3 00 00
 3.730000 1  200             Rx   d 8 6D 36 8D 03 00 00 00 00
 3.740000 1  200             Rx   d 8 25 37 8D 04 00 00 00 00
 3.740000 1  202             Rx   d 4 FB 9E 00 00
 3.750000 1  200             Rx   d 8 DE 37 8D 00 00 00 00 00
 3.760000 1  200             Rx   d 8 98 38 8D 01 00 00 00 00
 3.760000 1  202             Rx   d 4 FB 6A 00 00
 3.770000 1  200             Rx   d 8 54 39 8C 02 00 00 00 00
 3.780000 1  200             Rx   d 8 10 3A 8C 03 00 00 00 00
 3.780000 1  202             Rx   d 4 FB 36 00 00
 3.790000 1  200             Rx   d 8 CE 3A 8C 04 00 00 00 00
 3.800000 1  200             Rx   d 8 8D 3B 8C 00 00 00 00 00
 3.800000 1  202             Rx   d 4 FB 03 00 00
 3.800000 1  203             Rx   d 8 80 00 00 00 00 00 00 00
 3.800000 1  201             Rx   d 8 F4 01 00 00 00 00 00 00
 3.810000 1  200             Rx   d 8 4C 3C 8C 01 00 00 00 00
 3.820000 1  200             Rx   d 8 0D 3D 8C 02 00 00 00 00
 3.820000 1  202             Rx   d 4 FA D0 00 00
 3.830000 1  200             Rx   d 8 CE 3D 8C 03 00 00 00 00
 3.840000 1  200             Rx   d 8 91 3E 8C 04 00 00 00 00
 3.840000 1  202             Rx   d 4 FA 9D 00 00
 3.850000 1  200             Rx   d 8 54 3F 8C 00 00 00 00 00
 3.860000 1  200             Rx   d 8 18 40 8C 01 00 00 00 00
 3.860000 1  202             Rx   d 4 FA 6B 00 00
 3.870000 1  200             Rx   d 8 DC 40 8C 02 00 00 00 00
 3.880000 1  200             Rx   d 8 A2 41 8C 03 00 00 00 00
 3.880000 1  202             Rx   d 4 FA 3A 00 00
 3.890000 1  200             Rx   d 8 67 42 8C 04 00 00 00 00
 3.900000 1  200             Rx   d 8 2E 43 8C 00 00 00 00 00
 3.900000 1  202             Rx   d 4 FA 09 00 00
 3.900000 1  203             Rx   d 8 80 00 00 00 00 00 00 00
 3.900000 1  201             Rx   d 8 F4 01 00 00 00 00 00 00
 3.910000 1  200             Rx   d 8 F4 43 8B 01 00 00 00 00
 3.920000 1  200             Rx   d 8 BC 44 8B 02 00 00 00 00
 3.920000 1  202             Rx   d 4 F9 D8 00 00
 3.930000 1  200             Rx   d 8 83 45 8B 03 00 00 00 00
 3.940000 1  200             Rx   d 8 4B 46 8B 04 00 00 00 00
 3.940000 1  202             Rx   d 4 F9 A9 00 00
 3.950000 1  200             Rx   d 8 14 47 8B 00 00 00 00 00
 3.960000 1  200             Rx   d 8 DC 47 8B 01 00 00 00 00
 3.960000 1  202             Rx   d 4 F9 79 00 00
 3.970000 1  200             Rx   d 8 A5 48 8B 02 00 00 00 00
 3.980000 1  200             Rx   d 8 6E 49 8B 03 00 00 00 00
 3.980000 1  202             Rx   d 4 F9 4B 00 00
 3.990000 1  200             Rx   d 8 37 4A 8B 04 00 00 00 00
 4.000000 1  200             Rx   d 8 00 4B 8B 00 00 00 00 00
 4.000000 1  202             Rx   d 4 F9 1D 00 00
 4.000000 1  203             Rx   d 8 80 00 00 00 00 00 00 00
 4.000000 1  201             Rx   d 8 F4 01 00 00 00 00 00 00
 4.000000 1  300             Rx   d 8 DE AD BE EF 00 00 00 00
 4.010000 1  200             Rx   d 8 C9 4B 8B 01 00 00 00 00
 4.020000 1  200             Rx   d 8 92 4C 8B 02 00 00 00 00
 4.020000 1  202             Rx   d 4 F8 EF 00 00
 4.030000 1  200             Rx   d 8 5B 4D 8B 03 00 00 00 00
 4.040000 1  200             Rx   d 8 24 4E 8B 04 00 00 00 00
 4.040000 1  202             Rx   d 4 F8 C2 00 00
 4.050000 1  200             Rx   d 8 EC 4E 8A 00 00 00 00 00
 4.060000 1  200             Rx   d 8 B5 4F 8A 01 00 00 00 00
 4.060000 1  202             Rx   d 4 F8 96 00 00
 4.070000 1  200             Rx   d 8 7D 50 8A 02 00 00 00 00
 4.080000 1  200             Rx   d 8 44 51 8A 03 00 00 00 00
 4.080000 1  202             Rx   d 4 F8 6B 00 00
 4.090000 1  200             Rx   d 8 0C 52 8A 04 00 00 00 00
 4.100000 1  200             Rx   d 8 D2 52 8A 00 00 00 00 00
 4.100000 1  202             Rx   d 4 F8 40 00 00
 4.100000 1  203             Rx   d 8 80 00 00 00 00 00 00 00
 4.100000 1  201             Rx   d 8 F4 01 00 00 00 00 00 00
 4.110000 1  200             Rx   d 8 99 53 8A 01 00 00 00 00
 4.120000 1  200             Rx   d 8 5E 54 8A 02 00 00 00 00
 4.120000 1  202             Rx   d 4 F8 16 00 00
 4.130000 1  200             Rx   d 8 24 55 8A 03 00 00 00 00
 4.140000 1  200             Rx   d 8 E8 55 8A 04 00 00 00 00
 4.140000 1  202             Rx   d 4 F7 ED 00 00
 4.150000 1  200             Rx   d 8 AC 56 8A 00 00 00 00 00
 4.160000 1  200             Rx   d 8 6F 57 8A 01 00 00 00 00
 4.160000 1  202             Rx   d 4 F7 C4 00 00
 4.170000 1  200             Rx   d 8 32 58 89 02 00 00 00 00
 4.180000 1  200             Rx   d 8 F3 58 89 03 00 00 00 00
 4.180000 1  202             Rx   d 4 F7 9C 00 00
 4.190000 1  200             Rx   d 8 B4 59 89 04 00 00 00 00
 4.200000 1  200             Rx   d 8 73 5A 89 00 00 00 00 00
 4.200000 1  202             Rx   d 4 F7 75 00 00
 4.200000 1  203             Rx   d 8 80 00 00 00 00 00 00 00
 4.200000 1  201             Rx   d 8 F4 01 00 00 00 00 00 00
 4.210000 1  200             Rx   d 8 32 5B 89 01 00 00 00 00
 4.220000 1  200             Rx   d 8 F0 5B 89 02 00 00 00 00
 4.220000 1  202             Rx   d 4 F7 4F 00 00
 4.230000 1  200             Rx   d 8 AC 5C 89 03 00 00 00 00
 4.240000 1  200             Rx   d 8 68 5D 89 04 00 00 00 00
 4.240000 1  202             Rx   d 4 F7 29 00 00
 4.250000 1  200             Rx   d 8 22 5E 89 00 00 00 00 00
 4.260000 1  200             Rx   d 8 DB 5E 89 01 00 00 00 00
 4.260000 1  202             Rx   d 4 F7 05 00 00
 4.270000 1  200             Rx   d 8 93 5F 89 02 00 00 00 00
 4.280000 1  200             Rx   d 8 4A 60 89 03 00 00 00 00
 4.280000 1  202             Rx   d 4 F6 E1 00 00
 4.290000 1  200             Rx   d 8 FF 60 88 04 00 00 00 00
 4.300000 1  200             Rx   d 8 B3 61 88 00 00 00 00 00
 4.300000 1  202             Rx   d 4 F6 BE 00 00
 4.300000 1  203             Rx   d 8 80 00 00 00 00 00 00 00
 4.300000 1  201             Rx   d 8 F4 01 00 00 00 00 00 00
 4.310000 1  200             Rx   d 8 66 62 88 01 00 00 00 00
 4.320000 1  200             Rx   d 8 16 63 88 02 00 00 00 00
 4.320000 1  202             Rx   d 4 F6 9B 00 00
 4.330000 1  200             Rx   d 8 C6 63 88 03 00 00 00 00
 4.340000 1  200             Rx   d 8 74 64 88 04 00 00 00 00
 4.340000 1  202             Rx   d 4 F6 7A 00 00
 4.350000 1  200             Rx   d 8 20 65 88 00 00 00 00 00
 4.360000 1  200             Rx   d 8 CB 65 88 01 00 00 00 00
 4.360000 1  202             Rx   d 4 F6 59 00 00
 4.370000 1  200             Rx   d 8 73 66 88 02 00 00 00 00
 4.380000 1  200             Rx   d 8 1B 67 88 03 00 00 00 00
 4.380000 1  202             Rx   d 4 F6 3A 00 00
 4.390000 1  200             Rx   d 8 C0 67 88 04 00 00 00 00
 4.400000 1  200             Rx   d 8 64 68 88 00 00 00 00 00
 4.400000 1  202             Rx   d 4 F6 1B 00 00
 4.400000 1  203             Rx   d 8 80 00 00 00 00 00 00 00
 4.400000 1  201             Rx   d 8 F4 01 00 00 00 00 00 00
 4.410000 1  200             Rx   d 8 05 69 87 01 00 00 00 00
 4.420000 1  200             Rx   d 8 A5 69 87 02 00 00 00 00
 4.420000 1  202             Rx   d 4 F5 FD 00 00
 4.430000 1  200             Rx   d 8 43 6A 87 03 00 00 00 00
 4.440000 1  200             Rx   d 8 DF 6A 87 04 00 00 00 00
 4.440000 1  202             Rx   d 4 F5 E0 00 00
 4.450000 1  200             Rx   d 8 79 6B 87 00 00 00 00 00
 4.460000 1  200             Rx   d 8 11 6C 87 01 00 00 00 00
 4.460000 1  202             Rx   d 4 F5 C4 00 00
 4.470000 1  200             Rx   d 8 A7 6C 87 02 00 00 00 00
 4.480000 1  200             Rx   d 8 3A 6D 87 03 00 00 00 00
 4.480000 1  202             Rx   d 4 F5 A9 00 00
 4.490000 1  200             Rx   d 8 CC 6D 87 04 00 00 00 00
 4.500000 1  200             Rx   d 8 5B 6E 87 00 00 00 00 00
 4.500000 1  202             Rx   d 4 F5 8F 00 00
 4.500000 1  203             Rx   d 8 80 00 00 00 00 00 00 00
 4.500000 1  201             Rx   d 8 F4 01 00 00 00 00 00 00
 4.500000 1  300             Rx   d 8 DE AD BE EF 00 00 00 00
 4.510000 1  200             Rx   d 8 E8 6E 87 01 00 00 00 00
 4.520000 1  200             Rx   d 8 73 6F 86 02 00 00 00 00
 4.520000 1  202             Rx   d 4 F5 76 00 00
 4.530000 1  200             Rx   d 8 FB 6F 86 03 00 00 00 00
 4.540000 1  200             Rx   d 8 81 70 86 04 00 00 00 00
 4.540000 1  202             Rx   d 4 F5 5E 00 00
 4.550000 1  200             Rx   d 8 05 71 86 00 00 00 00 00
 4.560000 1  200             Rx   d 8 87 71 86 01 00 00 00 00
 4.560000 1  202             Rx   d 4 F5 46 00 00
 4.570000 1  200             Rx   d 8 06 72 86 02 00 00 00 00
 4.580000 1  200             Rx   d 8 82 72 86 03 00 00 00 00
 4.580000 1  202             Rx   d 4 F5 30 00 00
 4.590000 1  200             Rx   d 8 FC 72 86 04 00 00 00 00
 4.600000 1  200             Rx   d 8 73 73 86 00 00 00 00 00
 4.600000 1  202             Rx   d 4 F5 1B 00 00
 4.600000 1  203             Rx   d 8 80 00 00 00 00 00 00 00
 4.600000 1  201             Rx   d 8 F4 01 00 00 00 00 00 00
 4.610000 1  200             Rx   d 8 E8 73 86 01 00 00 00 00
 4.620000 1  200             Rx   d 8 5B 74 86 02 00 00 00 00
 4.620000 1  202             Rx   d 4 F5 06 00 00
 4.630000 1  200             Rx   d 8 CA 74 85 03 00 00 00 00
 4.640000 1  200             Rx   d 8 37 75 85 04 00 00 00 00
 4.640000 1  202             Rx   d 4 F4 F3 00 00
 4.650000 1  200             Rx   d 8 A2 75 85 00 00 00 00 00
 4.660000 1  200             Rx   d 8 09 76 85 01 00 00 00 00
 4.660000 1  202             Rx   d 4 F4 E1 00 00
 4.670000 1  200             Rx   d 8 6E 76 85 02 00 00 00 00
 4.680000 1  200             Rx   d 8 D1 76 85 03 00 00 00 00
 4.680000 1  202             Rx   d 4 F4 CF 00 00
 4.690000 1  200             Rx   d 8 30 77 85 04 00 00 00 00
 4.700000 1  200             Rx   d 8 8D 77 85 00 00 00 00 00
 4.700000 1  202             Rx   d 4 F4 BF 00 00
 4.700000 1  203             Rx   d 8 80 00 00 00 00 00 00 00
 4.700000 1  201             Rx   d 8 F4 01 00 00 00 00 00 00
 4.710000 1  200             Rx   d 8 E7 77 85 01 00 00 00 00
 4.720000 1  200             Rx   d 8 3E 78 85 02 00 00 00 00
 4.720000 1  202             Rx   d 4 F4 B0 00 00
 4.730000 1  200             Rx   d 8 92 78 85 03 00 00 00 00
 4.740000 1  200             Rx   d 8 E3 78 84 04 00 00 00 00
 4.740000 1  202             Rx   d 4 F4 A2 00 00
 4.750000 1  200             Rx   d 8 32 79 84 00 00 00 00 00
 4.760000 1  200             Rx   d 8 7D 79 84 01 00 00 00 00
 4.760000 1  202             Rx   d 4 F4 94 00 00
 4.770000 1  200             Rx   d 8 C6 79 84 02 00 00 00 00
 4.780000 1  200             Rx   d 8 0B 7A 84 03 00 00 00 00
 4.780000 1  202             Rx   d 4 F4 88 00 00
 4.790000 1  200             Rx   d 8 4E 7A 84 04 00 00 00 00
 4.800000 1  200             Rx   d 8 8E 7A 84 00 00 00 00 00
 4.800000 1  202             Rx   d 4 F4 7D 00 00
 4.800000 1  203             Rx   d 8 80 00 00 00 00 00 00 00
 4.800000 1  201             Rx   d 8 F4 01 00 00 00 00 00 00
 4.810000 1  200             Rx   d 8 CA 7A 84 01 00 00 00 00
 4.820000 1  200             Rx   d 8 04 7B 84 02 00 00 00 00
 4.820000 1  202             Rx   d 4 F4 73 00 00
 4.830000 1  200             Rx   d 8 3A 7B 84 03 00 00 00 00
 4.840000 1  200             Rx   d 8 6E 7B 84 04 00 00 00 00
 4.840000 1  202             Rx   d 4 F4 6A 00 00
 4.850000 1  200             Rx   d 8 9E 7B 83 00 00 00 00 00
 4.860000 1  200             Rx   d 8 CC 7B 83 01 00 00 00 00
 4.860000 1  202             Rx   d 4 F4 62 00 00
 4.870000 1  200             Rx   d 8 F6 7B 83 02 00 00 00 00
 4.880000 1  200             Rx   d 8 1D 7C 83 03 00 00 00 00
 4.880000 1  202             Rx   d 4 F4 5B 00 00
 4.890000 1  200             Rx   d 8 41 7C 83 04 00 00 00 00
 4.900000 1  200             Rx   d 8 62 7C 83 00 00 00 00 00
 4.900000 1  202             Rx   d 4 F4 55 00 00
 4.900000 1  203             Rx   d 8 80 00 00 00 00 00 00 00
 4.900000 1  201             Rx   d 8 F4 01 00 00 00 00 00 00
 4.910000 1  200             Rx   d 8 80 7C 83 01 00 00 00 00
 4.920000 1  200             Rx   d 8 9B 7C 83 02 00 00 00 00
 4.920000 1  202             Rx   d 4 F4 51 00 00
 4.930000 1  200             Rx   d 8 B3 7C 83 03 00 00 00 00
 4.940000 1  200             Rx   d 8 C7 7C 83 04 00 00 00 00
 4.940000 1  202             Rx   d 4 F4 4D 00 00
 4.950000 1  200             Rx   d 8 D9 7C 82 00 00 00 00 00
 4.960000 1  200             Rx   d 8 E7 7C BE 01 00 00 00 00
 4.960000 1  202             Rx   d 4 F4 4A 00 00
 4.970000 1  200             Rx   d 8 F2 7C BE 02 00 00 00 00
 4.980000 1  200             Rx   d 8 FA 7C BE 03 00 00 00 00
 4.980000 1  202             Rx   d 4 F4 49 00 00
 4.990000 1  200             Rx   d 8 FE 7C BE 04 00 00 00 00
 5.000000 1  200             Rx   d 8 00 7D BE 00 00 00 00 00
 5.000000 1  202             Rx   d 4 F4 48 00 00
 5.000000 1  203             Rx   d 8 80 00 00 00 00 00 00 00
 5.000000 1  201             Rx   d 8 F4 01 00 00 00 00 00 00
 5.000000 1  300             Rx   d 8 DE AD BE EF 00 00 00 00
 5.010000 1  200             Rx   d 8 FE 7C BE 01 00 00 00 00
 5.020000 1  200             Rx   d 8 FA 7C BE 02 00 00 00 00
 5.020000 1  202             Rx   d 4 F4 49 00 00
 5.030000 1  200             Rx   d 8 F2 7C BE 03 00 00 00 00
 5.040000 1  200             Rx   d 8 E7 7C BE 04 00 00 00 00
 5.040000 1  202             Rx   d 4 F4 4A 00 00
 5.050000 1  200             Rx   d 8 D9 7C BE 00 00 00 00 00
 5.060000 1  200             Rx   d 8 C7 7C 81 01 00 00 00 00
 5.060000 1  202             Rx   d 4 F4 4D 00 00
 5.070000 1  200             Rx   d 8 B3 7C 81 02 00 00 00 00
 5.080000 1  200             Rx   d 8 9B 7C 81 03 00 00 00 00
 5.080000 1  202             Rx   d 4 F4 51 00 00
 5.090000 1  200             Rx   d 8 80 7C 81 04 00 00 00 00
 5.100000 1  200             Rx   d 8 62 7C 81 00 00 00 00 00
 5.100000 1  202             Rx   d 4 F4 55 00 00
 5.100000 1  203             Rx   d 8 80 00 00 00 00 00 00 00
 5.100000 1  201             Rx   d 8 58 02 00 80 00 00 00 00
 5.110000 1  200             Rx   d 8 41 7C 81 01 00 00 00 00
 5.120000 1  200             Rx   d 8 1D 7C 81 02 00 00 00 00
 5.120000 1  202             Rx   d 4 F4 5B 00 00
 5.130000 1  200             Rx   d 8 F6 7B 81 03 00 00 00 00
 5.140000 1  200             Rx   d 8 CC 7B 81 04 00 00 00 00
 5.140000 1  202             Rx   d 4 F4 62 00 00
 5.150000 1  200             Rx   d 8 9E 7B 81 00 00 00 00 00
 5.160000 1  200             Rx   d 8 6E 7B 80 01 00 00 00 00
 5.160000 1  202             Rx   d 4 F4 6A 00 00
 5.170000 1  200             Rx   d 8 3A 7B 80 02 00 00 00 00
 5.180000 1  200             Rx   d 8 04 7B 80 03 00 00 00 00
 5.180000 1  202             Rx   d 4 F4 73 00 00
 5.190000 1  200             Rx   d 8 CA 7A 80 04 00 00 00 00
 5.200000 1  200             Rx   d 8 8E 7A 80 00 00 00 00 00
 5.200000 1  202             Rx   d 4 F4 7D 00 00
 5.200000 1  203             Rx   d 8 80 00 00 00 00 00 00 00
 5.200000 1  201             Rx   d 8 BB 02 00 80 00 00 00 00
 5.210000 1  200             Rx   d 8 4E 7A 80 01 00 00 00 00
 5.220000 1  200             Rx   d 8 0B 7A 80 02 00 00 00 00
 5.220000 1  202             Rx   d 4 F4 88 00 00
 5.230000 1  200             Rx   d 8 C6 79 80 03 00 00 00 00
 5.240000 1  200             Rx   d 8 7D 79 80 04 00 00 00 00
 5.240000 1  202             Rx   d 4 F4 94 00 00
 5.250000 1  200             Rx   d 8 32 79 80 00 00 00 00 00
 5.260000 1  200             Rx   d 8 E3 78 80 01 00 00 00 00
 5.260000 1  202             Rx   d 4 F4 A2 00 00
 5.270000 1  200             Rx   d 8 92 78 7F 02 00 00 00 00
 5.280000 1  200             Rx   d 8 3E 78 7F 03 00 00 00 00
 5.280000 1  202             Rx   d 4 F4 B0 00 00
 5.290000 1  200             Rx   d 8 E7 77 7F 04 00 00 00 00
 5.300000 1  200             Rx   d 8 8D 77 7F 00 00 00 00 00
 5.300000 1  202             Rx   d 4 F4 BF 00 00
 5.300000 1  203             Rx   d 8 80 00 00 00 00 00 00 00
 5.300000 1  201             Rx   d 8 1A 03 00 80 00 00 00 00
 5.310000 1  200             Rx   d 8 30 77 7F 01 00 00 00 00
 5.320000 1  200             Rx   d 8 D1 76 7F 02 00 00 00 00
 5.320000 1  202             Rx   d 4 F4 CF 00 00
 5.330000 1  200             Rx   d 8 6E 76 7F 03 00 00 00 00
 5.340000 1  200             Rx   d 8 09 76 7F 04 00 00 00 00
 5.340000 1  202             Rx   d 4 F4 E1 00 00
 5.350000 1  200             Rx   d 8 A2 75 7F 00 00 00 00 00
 5.360000 1  200             Rx   d 8 37 75 7F 01 00 00 00 00
 5.360000 1  202             Rx   d 4 F4 F3 00 00
 5.370000 1  200             Rx   d 8 CA 74 7F 02 00 00 00 00
 5.380000 1  200             Rx   d 8 5B 74 7E 03 00 00 00 00
 5.380000 1  202             Rx   d 4 F5 06 00 00
 5.390000 1  200             Rx   d 8 E8 73 7E 04 00 00 00 00
 5.400000 1  200             Rx   d 8 73 73 7E 00 00 00 00 00
 5.400000 1  202             Rx   d 4 F5 1B 00 00
 5.400000 1  203             Rx   d 8 80 00 00 00 00 00 00 00
 5.400000 1  201             Rx   d 8 75 03 00 80 00 00 00 00
 5.410000 1  200             Rx   d 8 FC 72 7E 01 00 00 00 00
 5.420000 1  200             Rx   d 8 82 72 7E 02 00 00 00 00
 5.420000 1  202             Rx   d 4 F5 30 00 00
 5.430000 1  200             Rx   d 8 06 72 7E 03 00 00 00 00
 5.440000 1  200             Rx   d 8 87 71 7E 04 00 00 00 00
 5.440000 1  202             Rx   d 4 F5 46 00 00
 5.450000 1  200             Rx   d 8 05 71 7E 00 00 00 00 00
 5.460000 1  200             Rx   d 8 81 70 7E 01 00 00 00 00
 5.460000 1  202             Rx   d 4 F5 5E 00 00
 5.470000 1  200             Rx   d 8 FB 6F 7E 02 00 00 00 00
 5.480000 1  200             Rx   d 8 73 6F 7E 03 00 00 00 00
 5.480000 1  202             Rx   d 4 F5 76 00 00
 5.490000 1  200             Rx   d 8 E8 6E 7D 04 00 00 00 00
 5.500000 1  200             Rx   d 8 5B 6E 7D 00 00 00 00 00
 5.500000 1  202             Rx   d 4 F5 8F 00 00
 5.500000 1  203             Rx   d 8 80 00 00 00 00 00 00 00
 5.500000 1  201             Rx   d 8 CA 03 00 80 00 00 00 00
 5.500000 1  300             Rx   d 8 DE AD BE EF 00 00 00 00
 5.510000 1  200             Rx   d 8 CC 6D 7D 01 00 00 00 00
 5.520000 1  200             Rx   d 8 3A 6D 7D 02 00 00 00 00
 5.520000 1  202             Rx   d 4 F5 A9 00 00
 5.530000 1  200             Rx   d 8 A7 6C 7D 03 00 00 00 00
 5.540000 1  200             Rx   d 8 11 6C 7D 04 00 00 00 00
 5.540000 1  202             Rx   d 4 F5 C4 00 00
 5.550000 1  200             Rx   d 8 79 6B 7D 00 00 00 00 00
 5.560000 1  200             Rx   d 8 DF 6A 7D 01 00 00 00 00
 5.560000 1  202             Rx   d 4 F5 E0 00 00
 5.570000 1  200             Rx   d 8 43 6A 7D 02 00 00 00 00
 5.580000 1  200             Rx   d 8 A5 69 7D 03 00 00 00 00
 5.580000 1  202             Rx   d 4 F5 FD 00 00
 5.590000 1  200             Rx   d 8 05 69 7D 04 00 00 00 00
 5.600000 1  200             Rx   d 8 64 68 7C 00 00 00 00 00
 5.600000 1  202             Rx   d 4 F6 1B 00 00
 5.600000 1  203             Rx   d 8 80 00 00 00 00 00 00 00
 5.600000 1  201             Rx   d 8 18 04 00 80 00 00 00 00
 5.610000 1  200             Rx   d 8 C0 67 7C 01 00 00 00 00
 5.620000 1  200             Rx   d 8 1B 67 7C 02 00 00 00 00
 5.620000 1  202             Rx   d 4 F6 3A 00 00
 5.630000 1  200             Rx   d 8 73 66 7C 03 00 00 00 00
 5.640000 1  200             Rx   d 8 CB 65 7C 04 00 00 00 00
 5.640000 1  202             Rx   d 4 F6 59 00 00
 5.650000 1  200             Rx   d 8 20 65 7C 00 00 00 00 00
 5.660000 1  200             Rx   d 8 74 64 7C 01 00 00 00 00
 5.660000 1  202             Rx   d 4 F6 7A 00 00
 5.670000 1  200             Rx   d 8 C6 63 7C 02 00 00 00 00
 5.680000 1  200             Rx   d 8 16 63 7C 03 00 00 00 00
 5.680000 1  202             Rx   d 4 F6 9B 00 00
 5.690000 1  200             Rx   d 8 66 62 7C 04 00 00 00 00
 5.700000 1  200             Rx   d 8 B3 61 7C 00 00 00 00 00
 5.700000 1  202             Rx   d 4 F6 BE 00 00
 5.700000 1  203             Rx   d 8 80 00 00 00 00 00 00 00
 5.700000 1  201             Rx   d 8 5C 04 00 80 00 00 00 00
 5.710000 1  200             Rx   d 8 FF 60 7C 01 00 00 00 00
 5.720000 1  200             Rx   d 8 4A 60 7B 02 00 00 00 00
 5.720000 1  202             Rx   d 4 F6 E1 00 00
 5.730000 1  200             Rx   d 8 93 5F 7B 03 00 00 00 00
 5.740000 1  200             Rx   d 8 DB 5E 7B 04 00 00 00 00
 5.740000 1  202             Rx   d 4 F7 05 00 00
 5.750000 1  200             Rx   d 8 22 5E 7B 00 00 00 00 00
 5.760000 1  200             Rx   d 8 68 5D 7B 01 00 00 00 00
 5.760000 1  202             Rx   d 4 F7 29 00 00
 5.770000 1  200             Rx   d 8 AC 5C 7B 02 00 00 00 00
 5.780000 1  200             Rx   d 8 F0 5B 7B 03 00 00 00 00
 5.780000 1  202             Rx   d 4 F7 4F 00 00
 5.790000 1  200             Rx   d 8 32 5B 7B 04 00 00 00 00
 5.800000 1  200             Rx   d 8 73 5A 7B 00 00 00 00 00
 5.800000 1  202             Rx   d 4 F7 75 00 00
 5.800000 1  203             Rx   d 8 80 00 00 00 00 00 00 00
 5.800000 1  201             Rx   d 8 97 04 00 80 00 00 00 00
 5.810000 1  200             Rx   d 8 B4 59 7B 01 00 00 00 00
 5.820000 1  200             Rx   d 8 F3 58 7B 02 00 00 00 00
 5.820000 1  202             Rx   d 4 F7 9C 00 00
 5.830000 1  200             Rx   d 8 32 58 7B 03 00 00 00 00
 5.840000 1  200             Rx   d 8 6F 57 7A 04 00 00 00 00
 5.840000 1  202             Rx   d 4 F7 C4 00 00
 5.850000 1  200             Rx   d 8 AC 56 7A 00 00 00 00 00
 5.860000 1  200             Rx   d 8 E8 55 7A 01 00 00 00 00
 5.860000 1  202             Rx   d 4 F7 ED 00 00
 5.870000 1  200             Rx   d 8 24 55 7A 02 00 00 00 00
 5.880000 1  200             Rx   d 8 5E 54 7A 03 00 00 00 00
 5.880000 1  202             Rx   d 4 F8 16 00 00
 5.890000 1  200             Rx   d 8 99 53 7A 04 00 00 00 00
 5.900000 1  200             Rx   d 8 D2 52 7A 00 00 00 00 00
 5.900000 1  202             Rx   d 4 F8 40 00 00
 5.900000 1  203             Rx   d 8 80 00 00 00 00 00 00 00
 5.900000 1  201             Rx   d 8 C8 04 00 80 00 00 00 00
 5.910000 1  200             Rx   d 8 0C 52 7A 01 00 00 00 00
 5.920000 1  200             Rx   d 8 44 51 7A 02 00 00 00 00
 5.920000 1  202             Rx   d 4 F8 6B 00 00
 5.930000 1  200             Rx   d 8 7D 50 7A 03 00 00 00 00
 5.940000 1  200             Rx   d 8 B5 4F 7A 04 00 00 00 00
 5.940000 1  202             Rx   d 4 F8 96 00 00
 5.950000 1  200             Rx   d 8 EC 4E 7A 00 00 00 00 00
 5.960000 1  200             Rx   d 8 24 4E 79 01 00 00 00 00
 5.960000 1  202             Rx   d 4 F8 C2 00 00
 5.970000 1  200             Rx   d 8 5B 4D 79 02 00 00 00 00
 5.980000 1  200             Rx   d 8 92 4C 79 03 00 00 00 00
 5.980000 1  202             Rx   d 4 F8 EF 00 00
 5.990000 1  200             Rx   d 8 C9 4B 79 04 00 00 00 00
 6.000000 1  200             Rx   d 8 00 4B 79 00 00 00 00 00
 6.000000 1  202             Rx   d 4 F9 1D 00 00
 6.000000 1  203             Rx   d 8 80 00 00 00 00 00 00 00
 6.000000 1  201             Rx   d 8 ED 04 00 80 00 00 00 00
 6.000000 1  300             Rx   d 8 DE AD BE EF 00 00 00 00
 6.010000 1  200             Rx   d 8 37 4A 79 01 00 00 00 00
 6.020000 1  200             Rx   d 8 6E 49 79 02 00 00 00 00
 6.020000 1  202             Rx   d 4 F9 4B 00 00
 6.030000 1  200             Rx   d 8 A5 48 79 03 00 00 00 00
 6.040000 1  200             Rx   d 8 DC 47 79 04 00 00 00 00
 6.040000 1  202             Rx   d 4 F9 79 00 00
 6.050000 1  200             Rx   d 8 14 47 79 00 00 00 00 00
 6.060000 1  200             Rx   d 8 4B 46 79 01 00 00 00 00
 6.060000 1  202             Rx   d 4 F9 A9 00 00
 6.070000 1  200             Rx   d 8 83 45 79 02 00 00 00 00
 6.080000 1  200             Rx   d 8 BC 44 79 03 00 00 00 00
 6.080000 1  202             Rx   d 4 F9 D8 00 00
 6.090000 1  200             Rx   d 8 F4 43 79 04 00 00 00 00
 6.100000 1  200             Rx   d 8 2E 43 78 00 00 00 00 00
 6.100000 1  202             Rx   d 4 FA 09 00 00
 6.100000 1  203             Rx   d 8 80 00 00 00 00 00 00 00
 6.100000 1  201             Rx   d 8 06 05 00 80 00 00 00 00
 6.110000 1  200             Rx   d 8 67 42 78 01 00 00 00 00
 6.120000 1  200             Rx   d 8 A2 41 78 02 00 00 00 00
 6.120000 1  202             Rx   d 4 FA 3A 00 00
 6.130000 1  200             Rx   d 8 DC 40 78 03 00 00 00 00
 6.140000 1  200             Rx   d 8 18 40 78 04 00 00 00 00
 6.140000 1  202             Rx   d 4 FA 6B 00 00
 6.150000 1  200             Rx   d 8 54 3F 78 00 00 00 00 00
 6.160000 1  200             Rx   d 8 91 3E 78 01 00 00 00 00
 6.160000 1  202             Rx   d 4 FA 9D 00 00
 6.170000 1  200             Rx   d 8 CE 3D 78 02 00 00 00 00
 6.180000 1  200             Rx   d 8 0D 3D 78 03 00 00 00 00
 6.180000 1  202             Rx   d 4 FA D0 00 00
 6.190000 1  200             Rx   d 8 4C 3C 78 04 00 00 00 00
 6.200000 1  200             Rx   d 8 8D 3B 78 00 00 00 00 00
 6.200000 1  202             Rx   d 4 FB 03 00 00
 6.200000 1  203             Rx   d 8 80 00 00 00 00 00 00 00
 6.200000 1  201             Rx   d 8 12 05 00 80 00 00 00 00
 6.210000 1  200             Rx   d 8 CE 3A 78 01 00 00 00 00
 6.220000 1  200             Rx   d 8 10 3A 78 02 00 00 00 00
 6.220000 1  202             Rx   d 4 FB 36 00 00
 6.230000 1  200             Rx   d 8 54 39 78 03 00 00 00 00
 6.240000 1  200             Rx   d 8 98 38 77 04 00 00 00 00
 6.240000 1  202             Rx   d 4 FB 6A 00 00
 6.250000 1  200             Rx   d 8 DE 37 77 00 00 00 00 00
 6.260000 1  200             Rx   d 8 25 37 77 01 00 00 00 00
 6.260000 1  202             Rx   d 4 FB 9E 00 00
 6.270000 1  200             Rx   d 8 6D 36 77 02 00 00 00 00
 6.280000 1  200             Rx   d 8 B6 35 77 03 00 00 00 00
 6.280000 1  202             Rx   d 4 FB D3 00 00
 6.290000 1  200             Rx   d 8 01 35 77 04 00 00 00 00
 6.300000 1  200             Rx   d 8 4D 34 77 00 00 00 00 00
 6.300000 1  202             Rx   d 4 FC 08 00 00
 6.300000 1  203             Rx   d 8 80 00 00 00 00 00 00 00
 6.300000 1  201             Rx   d 8 12 05 00 80 00 00 00 00
 6.310000 1  200             Rx   d 8 9A 33 77 01 00 00 00 00
 6.320000 1  200             Rx   d 8 EA 32 77 02 00 00 00 00
 6.320000 1  202             Rx   d 4 FC 3D 00 00
 6.330000 1  200             Rx   d 8 3A 32 77 03 00 00 00 00
 6.340000 1  200             Rx   d 8 8C 31 77 04 00 00 00 00
 6.340000 1  202             Rx   d 4 FC 73 00 00
 6.350000 1  200             Rx   d 8 E0 30 77 00 00 00 00 00
 6.360000 1  200             Rx   d 8 35 30 77 01 00 00 00 00
 6.360000 1  202             Rx   d 4 FC A9 00 00
 6.370000 1  200             Rx   d 8 8D 2F 77 02 00 00 00 00
 6.380000 1  200             Rx   d 8 E5 2E 77 03 00 00 00 00
 6.380000 1  202             Rx   d 4 FC DF 00 00
 6.390000 1  200             Rx   d 8 40 2E 77 04 00 00 00 00
 6.400000 1  200             Rx   d 8 9C 2D 76 00 00 00 00 00
 6.400000 1  202             Rx   d 4 FD 16 00 00
 6.400000 1  203             Rx   d 8 80 00 00 00 00 00 00 00
 6.400000 1  201             Rx   d 8 06 05 00 80 00 00 00 00
 6.410000 1  200             Rx   d 8 FB 2C 76 01 00 00 00 00
 6.420000 1  200             Rx   d 8 5B 2C 76 02 00 00 00 00
 6.420000 1  202             Rx   d 4 FD 4D 00 00
 6.430000 1  200             Rx   d 8 BD 2B 76 03 00 00 00 00
 6.440000 1  200             Rx   d 8 21 2B 76 04 00 00 00 00
 6.440000 1  202             Rx   d 4 FD 84 00 00
 6.450000 1  200             Rx   d 8 87 2A 76 00 00 00 00 00
 6.460000 1  200             Rx   d 8 EF 29 76 01 00 00 00 00
 6.460000 1  202             Rx   d 4 FD BB 00 00
 6.470000 1  200             Rx   d 8 59 29 76 02 00 00 00 00
 6.480000 1  200             Rx   d 8 C6 28 76 03 00 00 00 00
 6.480000 1  202             Rx   d 4 FD F3 00 00
 6.490000 1  200             Rx   d 8 34 28 76 04 00 00 00 00
 6.500000 1  200             Rx   d 8 A5 27 76 00 00 00 00 00
 6.500000 1  202             Rx   d 4 FE 2B 00 00
 6.500000 1  203             Rx   d 8 80 00 00 00 00 00 00 00
 6.500000 1  201             Rx   d 8 ED 04 00 80 00 00 00 00
 6.500000 1  300             Rx   d 8 DE AD BE EF 00 00 00 00
 6.510000 1  200             Rx   d 8 18 27 76 01 00 00 00 00
 6.520000 1  200             Rx   d 8 8D 26 76 02 00 00 00 00
 6.520000 1  202             Rx   d 4 FE 63 00 00
 6.530000 1  200             Rx   d 8 05 26 76 03 00 00 00 00
 6.540000 1  200             Rx   d 8 7F 25 76 04 00 00 00 00
 6.540000 1  202             Rx   d 4 FE 9B 00 00
 6.550000 1  200             Rx   d 8 FB 24 76 00 00 00 00 00
 6.560000 1  200             Rx   d 8 79 24 76 01 00 00 00 00
 6.560000 1  202             Rx   d 4 FE D3 00 00
 6.570000 1  200             Rx   d 8 FA 23 75 02 00 00 00 00
 6.580000 1  200             Rx   d 8 7E 23 75 03 00 00 00 00
 6.580000 1  202             Rx   d 4 FF 0B 00 00
 6.590000 1  200             Rx   d 8 04 23 75 04 00 00 00 00
 6.600000 1  200             Rx   d 8 8D 22 75 00 00 00 00 00
 6.600000 1  202             Rx   d 4 FF 44 00 00
 6.600000 1  203             Rx   d 8 80 00 00 00 00 00 00 00
 6.600000 1  201             Rx   d 8 C8 04 00 80 00 00 00 00
 6.610000 1  200             Rx   d 8 18 22 75 01 00 00 00 00
 6.620000 1  200             Rx   d 8 A5 21 75 02 00 00 00 00
 6.620000 1  202             Rx   d 4 FF 7C 00 00
 6.630000 1  200             Rx   d 8 36 21 75 03 00 00 00 00
 6.640000 1  200             Rx   d 8 C9 20 75 04 00 00 00 00
 6.640000 1  202             Rx   d 4 FF B5 00 00
 6.650000 1  200             Rx   d 8 5E 20 75 00 00 00 00 00
 6.660000 1  200             Rx   d 8 F7 1F 75 01 00 00 00 00
 6.660000 1  202             Rx   d 4 FF ED 00 00
 6.670000 1  200             Rx   d 8 92 1F 75 02 00 00 00 00
 6.680000 1  200             Rx   d 8 2F 1F 75 03 00 00 00 00
 6.680000 1  202             Rx   d 4 00 26 00 00
 6.690000 1  200             Rx   d 8 D0 1E 75 04 00 00 00 00
 6.700000 1  200             Rx   d 8 73 1E 75 00 00 00 00 00
 6.700000 1  202             Rx   d 4 00 5E 00 00
 6.700000 1  203             Rx   d 8 80 00 00 00 00 00 00 00
 6.700000 1  201             Rx   d 8 97 04 00 80 00 00 00 00
 6.710000 1  200             Rx   d 8 19 1E 75 01 00 00 00 00
 6.720000 1  200             Rx   d 8 C2 1D 75 02 00 00 00 00
 6.720000 1  202             Rx   d 4 00 97 00 00
 6.730000 1  200             Rx   d 8 6E 1D 75 03 00 00 00 00
 6.740000 1  200             Rx   d 8 1D 1D 75 04 00 00 00 00
 6.740000 1  202             Rx   d 4 00 CF 00 00
 6.750000 1  200             Rx   d 8 CE 1C 75 00 00 00 00 00
 6.760000 1  200             Rx   d 8 83 1C 75 01 00 00 00 00
 6.760000 1  202             Rx   d 4 01 08 00 00
 6.770000 1  200             Rx   d 8 3A 1C 75 02 00 00 00 00
 6.780000 1  200             Rx   d 8 F5 1B 75 03 00 00 00 00
 6.780000 1  202             Rx   d 4 01 40 00 00
 6.790000 1  200             Rx   d 8 B2 1B 74 04 00 00 00 00
 6.800000 1  200             Rx   d 8 72 1B 74 00 00 00 00 00
 6.800000 1  202             Rx   d 4 01 78 00 00
 6.800000 1  203             Rx   d 8 80 00 00 00 00 00 00 00
 6.800000 1  201             Rx   d 8 5C 04 00 80 00 00 00 00
 6.810000 1  200             Rx   d 8 36 1B 74 01 00 00 00 00
 6.820000 1  200             Rx   d 8 FC 1A 74 02 00 00 00 00
 6.820000 1  202             Rx   d 4 01 B0 00 00
 6.830000 1  200             Rx   d 8 C6 1A 74 03 00 00 00 00
 6.840000 1  200             Rx   d 8 92 1A 74 04 00 00 00 00
 6.840000 1  202             Rx   d 4 01 E8 00 00
 6.850000 1  200             Rx   d 8 62 1A 74 00 00 00 00 00
 6.860000 1  200             Rx   d 8 34 1A 74 01 00 00 00 00
 6.860000 1  202             Rx   d 4 02 20 00 00
 6.870000 1  200             Rx   d 8 0A 1A 74 02 00 00 00 00
 6.880000 1  200             Rx   d 8 E3 19 74 03 00 00 00 00
 6.880000 1  202             Rx   d 4 02 57 00 00
 6.890000 1  200             Rx   d 8 BF 19 74 04 00 00 00 00
 6.900000 1  200             Rx   d 8 9E 19 74 00 00 00 00 00
 6.900000 1  202             Rx   d 4 02 8E 00 00
 6.900000 1  203             Rx   d 8 80 00 00 00 00 00 00 00
 6.900000 1  201             Rx   d 8 18 04 00 80 00 00 00 00
 6.910000 1  200             Rx   d 8 80 19 74 01 00 00 00 00
 6.920000 1  200             Rx   d 8 65 19 74 02 00 00 00 00
 6.920000 1  202             Rx   d 4 02 C5 00 00
 6.930000 1  200             Rx   d 8 4D 19 74 03 00 00 00 00
 6.940000 1  200             Rx   d 8 39 19 74 04 00 00 00 00
 6.940000 1  202             Rx   d 4 02 FC 00 00
 6.950000 1  200             Rx   d 8 27 19 74 00 00 00 00 00
 6.960000 1  200             Rx   d 8 19 19 74 01 00 00 00 00
 6.960000 1  202             Rx   d 4 03 33 00 00
 6.970000 1  200             Rx   d 8 0E 19 74 02 00 00 00 00
 6.980000 1  200             Rx   d 8 06 19 74 03 00 00 00 00
 6.980000 1  202             Rx   d 4 03 69 00 00
 6.990000 1  200             Rx   d 8 02 19 74 04 00 00 00 00
 7.000000 1  200             Rx   d 8 00 19 74 00 00 00 00 00
 7.000000 1  202             Rx   d 4 03 9F 00 00
 7.000000 1  203             Rx   d 8 80 00 00 00 00 00 00 00
 7.000000 1  201             Rx   d 8 CA 03 00 80 00 00 00 00
 7.000000 1  300             Rx   d 8 DE AD BE EF 00 00 00 00
 7.010000 1  200             Rx   d 8 02 19 74 01 00 00 00 00
 7.020000 1  200             Rx   d 8 06 19 74 02 00 00 00 00
 7.020000 1  202             Rx   d 4 03 D5 00 00
 7.030000 1  200             Rx   d 8 0E 19 74 03 00 00 00 00
 7.040000 1  200             Rx   d 8 19 19 74 04 00 00 00 00
 7.040000 1  202             Rx   d 4 04 0A 00 00
 7.050000 1  200             Rx   d 8 27 19 74 00 00 00 00 00
 7.060000 1  200             Rx   d 8 39 19 74 01 00 00 00 00
 7.060000 1  202             Rx   d 4 04 3F 00 00
 7.070000 1  200             Rx   d 8 4D 19 74 02 00 00 00 00
 7.080000 1  200             Rx   d 8 65 19 74 03 00 00 00 00
 7.080000 1  202             Rx   d 4 04 73 00 00
 7.090000 1  200             Rx   d 8 80 19 73 04 00 00 00 00
 7.100000 1  200             Rx   d 8 9E 19 73 00 00 00 00 00
 7.100000 1  202             Rx   d 4 04 A7 00 00
 7.100000 1  203             Rx   d 8 80 00 00 00 00 00 00 00
 7.100000 1  201             Rx   d 8 75 03 00 80 00 00 00 00
 7.110000 1  200             Rx   d 8 BF 19 73 01 00 00 00 00
 7.120000 1  200             Rx   d 8 E3 19 73 02 00 00 00 00
 7.120000 1  202             Rx   d 4 04 DB 00 00
 7.130000 1  200             Rx   d 8 0A 1A 73 03 00 00 00 00
 7.140000 1  200             Rx   d 8 34 1A 73 04 00 00 00 00
 7.140000 1  202             Rx   d 4 05 0E 00 00
 7.150000 1  200             Rx   d 8 62 1A 73 00 00 00 00 00
 7.160000 1  200             Rx   d 8 92 1A 73 01 00 00 00 00
 7.160000 1  202             Rx   d 4 05 41 00 00
 7.170000 1  200             Rx   d 8 C6 1A 73 02 00 00 00 00
 7.180000 1  200             Rx   d 8 FC 1A 73 03 00 00 00 00
 7.180000 1  202             Rx   d 4 05 73 00 00
 7.190000 1  200             Rx   d 8 36 1B 73 04 00 00 00 00
 7.200000 1  200             Rx   d 8 72 1B 73 00 00 00 00 00
 7.200000 1  202             Rx   d 4 05 A5 00 00
 7.200000 1  203             Rx   d 8 80 00 00 00 00 00 00 00
 7.200000 1  201             Rx   d 8 1A 03 00 80 00 00 00 00
 7.210000 1  200             Rx   d 8 B2 1B 73 01 00 00 00 00
 7.220000 1  200             Rx   d 8 F5 1B 73 02 00 00 00 00
 7.220000 1  202             Rx   d 4 05 D7 00 00
 7.230000 1  200             Rx   d 8 3A 1C 73 03 00 00 00 00
 7.240000 1  200             Rx   d 8 83 1C 73 04 00 00 00 00
 7.240000 1  202             Rx   d 4 06 07 00 00
 7.250000 1  200             Rx   d 8 CE 1C 73 00 00 00 00 00
 7.260000 1  200             Rx   d 8 1D 1D 73 01 00 00 00 00
 7.260000 1  202             Rx   d 4 06 38 00 00
 7.270000 1  200             Rx   d 8 6E 1D 73 02 00 00 00 00
 7.280000 1  200             Rx   d 8 C2 1D 73 03 00 00 00 00
 7.280000 1  202             Rx   d 4 06 67 00 00
 7.290000 1  200             Rx   d 8 19 1E 73 04 00 00 00 00
 7.300000 1  200             Rx   d 8 73 1E 73 00 00 00 00 00
 7.300000 1  202             Rx   d 4 06 96 00 00
 7.300000 1  203             Rx   d 8 80 00 00 00 00 00 00 00
 7.300000 1  201             Rx   d 8 BB 02 00 80 00 00 00 00
 7.310000 1  200             Rx   d 8 D0 1E 73 01 00 00 00 00
 7.320000 1  200             Rx   d 8 2F 1F 73 02 00 00 00 00
 7.320000 1  202             Rx   d 4 06 C5 00 00
 7.330000 1  200             Rx   d 8 92 1F 73 03 00 00 00 00
 7.340000 1  200             Rx   d 8 F7 1F 73 04 00 00 00 00
 7.340000 1  202             Rx   d 4 06 F3 00 00
 7.350000 1  200             Rx   d 8 5E 20 73 00 00 00 00 00
 7.360000 1  200             Rx   d 8 C9 20 73 01 00 00 00 00
 7.360000 1  202             Rx   d 4 07 20 00 00
 7.370000 1  200             Rx   d 8 36 21 73 02 00 00 00 00
 7.380000 1  200             Rx   d 8 A5 21 73 03 00 00 00 00
 7.380000 1  202             Rx   d 4 07 4C 00 00
 7.390000 1  200             Rx   d 8 18 22 73 04 00 00 00 00
 7.400000 1  200             Rx   d 8 8D 22 73 00 00 00 00 00
 7.400000 1  202             Rx   d 4 07 78 00 00
 7.400000 1  203             Rx   d 8 80 00 00 00 00 00 00 00
 7.400000 1  201             Rx   d 8 58 02 00 80 00 00 00 00
 7.410000 1  200             Rx   d 8 04 23 73 01 00 00 00 00
 7.420000 1  200             Rx   d 8 7E 23 73 02 00 00 00 00
 7.420000 1  202             Rx   d 4 07 A4 00 00
 7.430000 1  200             Rx   d 8 FA 23 73 03 00 00 00 00
 7.440000 1  200             Rx   d 8 79 24 73 04 00 00 00 00
 7.440000 1  202             Rx   d 4 07 CE 00 00
 7.450000 1  200             Rx   d 8 FB 24 73 00 00 00 00 00
 7.460000 1  200             Rx   d 8 7F 25 73 01 00 00 00 00
 7.460000 1  202             Rx   d 4 07 F8 00 00
 7.470000 1  200             Rx   d 8 05 26 73 02 00 00 00 00
 7.480000 1  200             Rx   d 8 8D 26 73 03 00 00 00 00
 7.480000 1  202             Rx   d 4 08 21 00 00
 7.490000 1  200             Rx   d 8 18 27 73 04 00 00 00 00
 7.500000 1  200             Rx   d 8 A5 27 73 00 00 00 00 00
 7.500000 1  202             Rx   d 4 08 49 00 00
 7.500000 1  203             Rx   d 8 80 00 00 00 00 00 00 00
 7.500000 1  201             Rx   d 8 F4 01 00 80 00 00 00 00
 7.500000 1  300             Rx   d 8 DE AD BE EF 00 00 00 00
 7.510000 1  200             Rx   d 8 34 28 73 01 00 00 00 00
 7.520000 1  200             Rx   d 8 C6 28 73 02 00 00 00 00
 7.520000 1  202             Rx   d 4 08 71 00 00
 7.530000 1  200             Rx   d 8 59 29 73 03 00 00 00 00
 7.540000 1  200             Rx   d 8 EF 29 73 04 00 00 00 00
 7.540000 1  202             Rx   d 4 08 98 00 00
 7.550000 1  200             Rx   d 8 87 2A 73 00 00 00 00 00
 7.560000 1  200             Rx   d 8 21 2B 73 01 00 00 00 00
 7.560000 1  202             Rx   d 4 08 BE 00 00
 7.570000 1  200             Rx   d 8 BD 2B 73 02 00 00 00 00
 7.580000 1  200             Rx   d 8 5B 2C 73 03 00 00 00 00
 7.580000 1  202             Rx   d 4 08 E3 00 00
 7.590000 1  200             Rx   d 8 FB 2C 73 04 00 00 00 00
 7.600000 1  200             Rx   d 8 9C 2D 73 00 00 00 00 00
 7.600000 1  202             Rx   d 4 09 08 00 00
 7.600000 1  203             Rx   d 8 80 00 00 00 00 00 00 00
 7.600000 1  201             Rx   d 8 F4 01 00 00 00 00 00 00
 7.610000 1  200             Rx   d 8 40 2E 73 01 00 00 00 00
 7.620000 1  200             Rx   d 8 E5 2E 73 02 00 00 00 00
 7.620000 1  202             Rx   d 4 09 2B 00 00
 7.630000 1  200             Rx   d 8 8D 2F 73 03 00 00 00 00
 7.640000 1  200             Rx   d 8 35 30 73 04 00 00 00 00
 7.640000 1  202             Rx   d 4 09 4E 00 00
 7.650000 1  200             Rx   d 8 E0 30 73 00 00 00 00 00
 7.660000 1  200             Rx   d 8 8C 31 73 01 00 00 00 00
 7.660000 1  202             Rx   d 4 09 70 00 00
 7.670000 1  200             Rx   d 8 3A 32 73 02 00 00 00 00
 7.680000 1  200             Rx   d 8 EA 32 73 03 00 00 00 00
 7.680000 1  202             Rx   d 4 09 91 00 00
 7.690000 1  200             Rx   d 8 9A 33 73 04 00 00 00 00
 7.700000 1  200             Rx   d 8 4D 34 73 00 00 00 00 00
 7.700000 1  202             Rx   d 4 09 B1 00 00
 7.700000 1  203             Rx   d 8 80 00 00 00 00 00 00 00
 7.700000 1  201             Rx   d 8 F4 01 00 00 00 00 00 00
 7.710000 1  200             Rx   d 8 01 35 73 01 00 00 00 00
 7.720000 1  200             Rx   d 8 B6 35 73 02 00 00 00 00
 7.720000 1  202             Rx   d 4 09 D1 00 00
 7.730000 1  200             Rx   d 8 6D 36 73 03 00 00 00 00
 7.740000 1  200             Rx   d 8 25 37 73 04 00 00 00 00
 7.740000 1  202             Rx   d 4 09 EF 00 00
 7.750000 1  200             Rx   d 8 DE 37 73 00 00 00 00 00
 7.760000 1  200             Rx   d 8 98 38 73 01 00 00 00 00
 7.760000 1  202             Rx   d 4 0A 0D 00 00
 7.770000 1  200             Rx   d 8 54 39 73 02 00 00 00 00
 7.780000 1  200             Rx   d 8 10 3A 73 03 00 00 00 00
 7.780000 1  202             Rx   d 4 0A 29 00 00
 7.790000 1  200             Rx   d 8 CE 3A 73 04 00 00 00 00
 7.800000 1  200             Rx   d 8 8D 3B 73 00 00 00 00 00
 7.800000 1  202             Rx   d 4 0A 45 00 00
 7.800000 1  203             Rx   d 8 80 00 00 00 00 00 00 00
 7.800000 1  201             Rx   d 8 F4 01 00 00 00 00 00 00
 7.810000 1  200             Rx   d 8 4C 3C 73 01 00 00 00 00
 7.820000 1  200             Rx   d 8 0D 3D 73 02 00 00 00 00
 7.820000 1  202             Rx   d 4 0A 60 00 00
 7.830000 1  200             Rx   d 8 CE 3D 73 03 00 00 00 00
 7.840000 1  200             Rx   d 8 91 3E 73 04 00 00 00 00
 7.840000 1  202             Rx   d 4 0A 7A 00 00
 7.850000 1  200             Rx   d 8 54 3F 73 00 00 00 00 00
 7.860000 1  200             Rx   d 8 18 40 73 01 00 00 00 00
 7.860000 1  202             Rx   d 4 0A 92 00 00
 7.870000 1  200             Rx   d 8 DC 40 73 02 00 00 00 00
 7.880000 1  200             Rx   d 8 A2 41 73 03 00 00 00 00
 7.880000 1  202             Rx   d 4 0A AA 00 00
 7.890000 1  200             Rx   d 8 67 42 73 04 00 00 00 00
 7.900000 1  200             Rx   d 8 2E 43 73 00 00 00 00 00
 7.900000 1  202             Rx   d 4 0A C1 00 00
 7.900000 1  203             Rx   d 8 80 00 00 00 00 00 00 00
 7.900000 1  201             Rx   d 8 F4 01 00 00 00 00 00 00
 7.910000 1  200             Rx   d 8 F4 43 73 01 00 00 00 00
 7.920000 1  200             Rx   d 8 BC 44 74 02 00 00 00 00
 7.920000 1  202             Rx   d 4 0A D7 00 00
 7.930000 1  200             Rx   d 8 83 45 74 03 00 00 00 00
 7.940000 1  200             Rx   d 8 4B 46 74 04 00 00 00 00
 7.940000 1  202             Rx   d 4 0A EC 00 00
 7.950000 1  200             Rx   d 8 14 47 74 00 00 00 00 00
 7.960000 1  200             Rx   d 8 DC 47 74 01 00 00 00 00
 7.960000 1  202             Rx   d 4 0B 00 00 00
 7.970000 1  200             Rx   d 8 A5 48 74 02 00 00 00 00
 7.980000 1  200             Rx   d 8 6E 49 74 03 00 00 00 00
 7.980000 1  202             Rx   d 4 0B 13 00 00
 7.990000 1  200             Rx   d 8 37 4A 74 04 00 00 00 00
 8.000000 1  200             Rx   d 8 00 4B 74 00 00 00 00 00
 8.000000 1  202             Rx   d 4 0B 25 00 00
 8.000000 1  203             Rx   d 8 80 00 00 00 00 00 00 00
 8.000000 1  201             Rx   d 8 F4 01 00 00 00 00 00 00
 8.000000 1  300             Rx   d 8 DE AD BE EF 00 00 00 00
 8.010000 1  200             Rx   d 8 C9 4B 74 01 00 00 00 00
 8.020000 1  200             Rx   d 8 92 4C 74 02 00 00 00 00
 8.020000 1  202             Rx   d 4 0B 36 00 00
 8.030000 1  200             Rx   d 8 5B 4D 74 03 00 00 00 00
 8.040000 1  200             Rx   d 8 24 4E 74 04 00 00 00 00
 8.040000 1  202             Rx   d 4 0B 46 00 00
 8.050000 1  200             Rx   d 8 EC 4E 74 00 00 00 00 00
 8.060000 1  200             Rx   d 8 B5 4F 74 01 00 00 00 00
 8.060000 1  202             Rx   d 4 0B 55 00 00
 8.070000 1  200             Rx   d 8 7D 50 74 02 00 00 00 00
 8.080000 1  200             Rx   d 8 44 51 74 03 00 00 00 00
 8.080000 1  202             Rx   d 4 0B 63 00 00
 8.090000 1  200             Rx   d 8 0C 52 74 04 00 00 00 00
 8.100000 1  200             Rx   d 8 D2 52 74 00 00 00 00 00
 8.100000 1  202             Rx   d 4 0B 70 00 00
 8.100000 1  203             Rx   d 8 80 00 00 00 00 00 00 00
 8.110000 1  200             Rx   d 8 99 53 74 01 00 00 00 00
 8.120000 1  200             Rx   d 8 5E 54 74 02 00 00 00 00
 8.120000 1  202             Rx   d 4 0B 7C 00 00
 8.130000 1  200             Rx   d 8 24 55 74 03 00 00 00 00
 8.140000 1  200             Rx   d 8 E8 55 74 04 00 00 00 00
 8.140000 1  202             Rx   d 4 0B 86 00 00
 8.150000 1  200             Rx   d 8 AC 56 74 00 00 00 00 00
 8.160000 1  200             Rx   d 8 6F 57 74 01 00 00 00 00
 8.160000 1  202             Rx   d 4 0B 90 00 00
 8.170000 1  200             Rx   d 8 32 58 74 02 00 00 00 00
 8.180000 1  200             Rx   d 8 F3 58 74 03 00 00 00 00
 8.180000 1  202             Rx   d 4 0B 99 00 00
 8.190000 1  200             Rx   d 8 B4 59 74 04 00 00 00 00
 8.200000 1  200             Rx   d 8 73 5A 74 00 00 00 00 00
 8.200000 1  202             Rx   d 4 0B A0 00 00
 8.200000 1  203             Rx   d 8 80 00 00 00 00 00 00 00
 8.210000 1  200             Rx   d 8 32 5B 74 01 00 00 00 00
 8.220000 1  200             Rx   d 8 F0 5B 75 02 00 00 00 00
 8.220000 1  202             Rx   d 4 0B A7 00 00
 8.230000 1  200             Rx   d 8 AC 5C 75 03 00 00 00 00
 8.240000 1  200             Rx   d 8 68 5D 75 04 00 00 00 00
 8.240000 1  202             Rx   d 4 0B AC 00 00
 8.250000 1  200             Rx   d 8 22 5E 75 00 00 00 00 00
 8.260000 1  200             Rx   d 8 DB 5E 75 01 00 00 00 00
 8.260000 1  202             Rx   d 4 0B B1 00 00
 8.270000 1  200             Rx   d 8 93 5F 75 02 00 00 00 00
 8.280000 1  200             Rx   d 8 4A 60 75 03 00 00 00 00
 8.280000 1  202             Rx   d 4 0B B4 00 00
 8.290000 1  200             Rx   d 8 FF 60 75 04 00 00 00 00
 8.300000 1  200             Rx   d 8 B3 61 75 00 00 00 00 00
 8.300000 1  202             Rx   d 4 0B B7 00 00
 8.300000 1  203             Rx   d 8 80 00 00 00 00 00 00 00
 8.310000 1  200             Rx   d 8 66 62 75 01 00 00 00 00
 8.320000 1  200             Rx   d 8 16 63 75 02 00 00 00 00
 8.320000 1  202             Rx   d 4 0B B8 00 00
 8.330000 1  200             Rx   d 8 C6 63 75 03 00 00 00 00
 8.340000 1  200             Rx   d 8 74 64 75 04 00 00 00 00
 8.340000 1  202             Rx   d 4 0B B8 00 00
 8.350000 1  200             Rx   d 8 20 65 75 00 00 00 00 00
 8.360000 1  200             Rx   d 8 CB 65 75 01 00 00 00 00
 8.360000 1  202             Rx   d 4 0B B7 00 00
 8.370000 1  200             Rx   d 8 73 66 75 02 00 00 00 00
 8.380000 1  200             Rx   d 8 1B 67 75 03 00 00 00 00
 8.380000 1  202             Rx   d 4 0B B5 00 00
 8.390000 1  200             Rx   d 8 C0 67 75 04 00 00 00 00
 8.400000 1  200             Rx   d 8 64 68 75 00 00 00 00 00
 8.400000 1  202             Rx   d 4 0B B2 00 00
 8.400000 1  203             Rx   d 8 80 00 00 00 00 00 00 00
 8.410000 1  200             Rx   d 8 05 69 75 01 00 00 00 00
 8.420000 1  200             Rx   d 8 A5 69 75 02 00 00 00 00
 8.420000 1  202             Rx   d 4 0B AE 00 00
 8.430000 1  200             Rx   d 8 43 6A 75 03 00 00 00 00
 8.440000 1  200             Rx   d 8 DF 6A 76 04 00 00 00 00
 8.440000 1  202             Rx   d 4 0B A9 00 00
 8.450000 1  200             Rx   d 8 79 6B 76 00 00 00 00 00
 8.460000 1  200             Rx   d 8 11 6C 76 01 00 00 00 00
 8.460000 1  202             Rx   d 4 0B A3 00 00
 8.470000 1  200             Rx   d 8 A7 6C 76 02 00 00 00 00
 8.480000 1  200             Rx   d 8 3A 6D 76 03 00 00 00 00
 8.480000 1  202             Rx   d 4 0B 9B 00 00
 8.490000 1  200             Rx   d 8 CC 6D 76 04 00 00 00 00
 8.500000 1  200             Rx   d 8 5B 6E 76 00 00 00 00 00
 8.500000 1  202             Rx   d 4 0B 93 00 00
 8.500000 1  203             Rx   d 8 80 00 00 00 00 00 00 00
 8.500000 1  300             Rx   d 8 DE AD BE EF 00 00 00 00
 8.510000 1  200             Rx   d 8 E8 6E 76 01 00 00 00 00
 8.520000 1  200             Rx   d 8 73 6F 76 02 00 00 00 00
 8.520000 1  202             Rx   d 4 0B 8A 00 00
 8.530000 1  200             Rx   d 8 FB 6F 76 03 00 00 00 00
 8.540000 1  200             Rx   d 8 81 70 76 04 00 00 00 00
 8.540000 1  202             Rx   d 4 0B 7F 00 00
 8.550000 1  200             Rx   d 8 05 71 76 00 00 00 00 00
 8.560000 1  200             Rx   d 8 87 71 76 01 00 00 00 00
 8.560000 1  202             Rx   d 4 0B 74 00 00
 8.570000 1  200             Rx   d 8 06 72 76 02 00 00 00 00
 8.580000 1  200             Rx   d 8 82 72 76 03 00 00 00 00
 8.580000 1  202             Rx   d 4 0B 67 00 00
 8.590000 1  200             Rx   d 8 FC 72 76 04 00 00 00 00
 8.600000 1  200             Rx   d 8 73 73 76 00 00 00 00 00
 8.600000 1  202             Rx   d 4 0B 5A 00 00
 8.600000 1  203             Rx   d 8 80 00 00 00 00 00 00 00
 8.610000 1  200             Rx   d 8 E8 73 77 01 00 00 00 00
 8.620000 1  200             Rx   d 8 5B 74 77 02 00 00 00 00
 8.620000 1  202             Rx   d 4 0B 4B 00 00
 8.630000 1  200             Rx   d 8 CA 74 77 03 00 00 00 00
 8.640000 1  200             Rx   d 8 37 75 77 04 00 00 00 00
 8.640000 1  202             Rx   d 4 0B 3C 00 00
 8.650000 1  200             Rx   d 8 A2 75 77 00 00 00 00 00
 8.660000 1  200             Rx   d 8 09 76 77 01 00 00 00 00
 8.660000 1  202             Rx   d 4 0B 2B 00 00
 8.670000 1  200             Rx   d 8 6E 76 77 02 00 00 00 00
 8.680000 1  200             Rx   d 8 D1 76 77 03 00 00 00 00
 8.680000 1  202             Rx   d 4 0B 19 00 00
 8.690000 1  200             Rx   d 8 30 77 77 04 00 00 00 00
 8.700000 1  200             Rx   d 8 8D 77 77 00 00 00 00 00
 8.700000 1  202             Rx   d 4 0B 07 00 00
 8.700000 1  203             Rx   d 8 80 00 00 00 00 00 00 00
 8.710000 1  200             Rx   d 8 E7 77 77 01 00 00 00 00
 8.720000 1  200             Rx   d 8 3E 78 77 02 00 00 00 00
 8.720000 1  202             Rx   d 4 0A F3 00 00
 8.730000 1  200             Rx   d 8 92 78 77 03 00 00 00 00
 8.740000 1  200             Rx   d 8 E3 78 77 04 00 00 00 00
 8.740000 1  202             Rx   d 4 0A DE 00 00
 8.750000 1  200             Rx   d 8 32 79 77 00 00 00 00 00
 8.760000 1  200             Rx   d 8 7D 79 77 01 00 00 00 00
 8.760000 1  202             Rx   d 4 0A C9 00 00
 8.770000 1  200             Rx   d 8 C6 79 78 02 00 00 00 00
 8.780000 1  200             Rx   d 8 0B 7A 78 03 00 00 00 00
 8.780000 1  202             Rx   d 4 0A B2 00 00
 8.790000 1  200             Rx   d 8 4E 7A 78 04 00 00 00 00
 8.800000 1  200             Rx   d 8 8E 7A 78 00 00 00 00 00
 8.800000 1  202             Rx   d 4 0A 9A 00 00
 8.800000 1  203             Rx   d 8 80 00 00 00 00 00 00 00
 8.810000 1  200             Rx   d 8 CA 7A 78 01 00 00 00 00
 8.820000 1  200             Rx   d 8 04 7B 78 02 00 00 00 00
 8.820000 1  202             Rx   d 4 0A 82 00 00
 8.830000 1  200             Rx   d 8 3A 7B 78 03 00 00 00 00
 8.840000 1  200             Rx   d 8 6E 7B 78 04 00 00 00 00
 8.840000 1  202             Rx   d 4 0A 68 00 00
 8.850000 1  200             Rx   d 8 9E 7B 78 00 00 00 00 00
 8.860000 1  200             Rx   d 8 CC 7B 78 01 00 00 00 00
 8.860000 1  202             Rx   d 4 0A 4E 00 00
 8.870000 1  200             Rx   d 8 F6 7B 78 02 00 00 00 00
 8.880000 1  200             Rx   d 8 1D 7C 78 03 00 00 00 00
 8.880000 1  202             Rx   d 4 0A 33 00 00
 8.890000 1  200             Rx   d 8 41 7C 78 04 00 00 00 00
 8.900000 1  200             Rx   d 8 62 7C 78 00 00 00 00 00
 8.900000 1  202             Rx   d 4 0A 16 00 00
 8.900000 1  203             Rx   d 8 80 00 00 00 00 00 00 00
 8.910000 1  200             Rx   d 8 80 7C 79 01 00 00 00 00
 8.920000 1  200             Rx   d 8 9B 7C 79 02 00 00 00 00
 8.920000 1  202             Rx   d 4 09 F9 00 00
 8.930000 1  200             Rx   d 8 B3 7C 79 03 00 00 00 00
 8.940000 1  200             Rx   d 8 C7 7C 79 04 00 00 00 00
 8.940000 1  202             Rx   d 4 09 DB 00 00
 8.950000 1  200             Rx   d 8 D9 7C 79 00 00 00 00 00
 8.960000 1  200             Rx   d 8 E7 7C 79 01 00 00 00 00
 8.960000 1  202             Rx   d 4 09 BC 00 00
 8.970000 1  200             Rx   d 8 F2 7C 79 02 00 00 00 00
 8.980000 1  200             Rx   d 8 FA 7C 79 03 00 00 00 00
 8.980000 1  202             Rx   d 4 09 9C 00 00
 8.990000 1  200             Rx   d 8 FE 7C 79 04 00 00 00 00
 9.000000 1  200             Rx   d 8 00 7D 79 00 00 00 00 00
 9.000000 1  202             Rx   d 4 09 7B 00 00
 9.000000 1  203             Rx   d 8 80 00 00 00 00 00 00 00
 9.000000 1  300             Rx   d 8 DE AD BE EF 00 00 00 00
 9.010000 1  200             Rx   d 8 FE 7C 79 01 00 00 00 00
 9.020000 1  200             Rx   d 8 FA 7C 79 02 00 00 00 00
 9.020000 1  202             Rx   d 4 09 59 00 00
 9.030000 1  200             Rx   d 8 F2 7C 79 03 00 00 00 00
 9.040000 1  200             Rx   d 8 E7 7C 79 04 00 00 00 00
 9.040000 1  202             Rx   d 4 09 37 00 00
 9.050000 1  200             Rx   d 8 D9 7C 7A 00 00 00 00 00
 9.060000 1  200             Rx   d 8 C7 7C 7A 01 00 00 00 00
 9.060000 1  202             Rx   d 4 09 14 00 00
 9.070000 1  200             Rx   d 8 B3 7C 7A 02 00 00 00 00
 9.080000 1  200             Rx   d 8 9B 7C 7A 03 00 00 00 00
 9.080000 1  202             Rx   d 4 08 EF 00 00
 9.090000 1  200             Rx   d 8 80 7C 7A 04 00 00 00 00
 9.100000 1  200             Rx   d 8 62 7C 7A 00 00 00 00 00
 9.100000 1  202             Rx   d 4 08 CA 00 00
 9.100000 1  203             Rx   d 8 80 00 00 00 00 00 00 00
 9.100000 1  201             Rx   d 8 F4 01 00 00 00 00 00 00
 9.110000 1  200             Rx   d 8 41 7C 7A 01 00 00 00 00
 9.120000 1  200             Rx   d 8 1D 7C 7A 02 00 00 00 00
 9.120000 1  202             Rx   d 4 08 A5 00 00
 9.130000 1  200             Rx   d 8 F6 7B 7A 03 00 00 00 00
 9.140000 1  200             Rx   d 8 CC 7B 7A 04 00 00 00 00
 9.140000 1  202             Rx   d 4 08 7E 00 00
 9.150000 1  200             Rx   d 8 9E 7B 7A 00 00 00 00 00
 9.160000 1  200             Rx   d 8 6E 7B 7A 01 00 00 00 00
 9.160000 1  202             Rx   d 4 08 57 00 00
 9.170000 1  200             Rx   d 8 3A 7B 7B 02 00 00 00 00
 9.180000 1  200             Rx   d 8 04 7B 7B 03 00 00 00 00
 9.180000 1  202             Rx   d 4 08 2E 00 00
 9.190000 1  200             Rx   d 8 CA 7A 7B 04 00 00 00 00
 9.200000 1  200             Rx   d 8 8E 7A 7B 00 00 00 00 00
 9.200000 1  202             Rx   d 4 08 06 00 00
 9.200000 1  203             Rx   d 8 80 00 00 00 00 00 00 00
 9.200000 1  201             Rx   d 8 F4 01 00 00 00 00 00 00
 9.210000 1  200             Rx   d 8 4E 7A 7B 01 00 00 00 00
 9.220000 1  200             Rx   d 8 0B 7A 7B 02 00 00 00 00
 9.220000 1  202             Rx   d 4 07 DC 00 00
 9.230000 1  200             Rx   d 8 C6 79 7B 03 00 00 00 00
 9.240000 1  200             Rx   d 8 7D 79 7B 04 00 00 00 00
 9.240000 1  202             Rx   d 4 07 B2 00 00
 9.250000 1  200             Rx   d 8 32 79 7B 00 00 00 00 00
 9.260000 1  200             Rx   d 8 E3 78 7B 01 00 00 00 00
 9.260000 1  202             Rx   d 4 07 87 00 00
 9.270000 1  200             Rx   d 8 92 78 7B 02 00 00 00 00
 9.280000 1  200             Rx   d 8 3E 78 7B 03 00 00 00 00
 9.280000 1  202             Rx   d 4 07 5B 00 00
 9.290000 1  200             Rx   d 8 E7 77 7C 04 00 00 00 00
 9.300000 1  200             Rx   d 8 8D 77 7C 00 00 00 00 00
 9.300000 1  202             Rx   d 4 07 2F 00 00
 9.300000 1  203             Rx   d 8 80 00 00 00 00 00 00 00
 9.300000 1  201             Rx   d 8 F4 01 00 00 00 00 00 00
 9.310000 1  200             Rx   d 8 30 77 7C 01 00 00 00 00
 9.320000 1  200             Rx   d 8 D1 76 7C 02 00 00 00 00
 9.320000 1  202             Rx   d 4 07 02 00 00
 9.330000 1  200             Rx   d 8 6E 76 7C 03 00 00 00 00
 9.340000 1  200             Rx   d 8 09 76 7C 04 00 00 00 00
 9.340000 1  202             Rx   d 4 06 D4 00 00
 9.350000 1  200             Rx   d 8 A2 75 7C 00 00 00 00 00
 9.360000 1  200             Rx   d 8 37 75 7C 01 00 00 00 00
 9.360000 1  202             Rx   d 4 06 A6 00 00
 9.370000 1  200             Rx   d 8 CA 74 7C 02 00 00 00 00
 9.380000 1  200             Rx   d 8 5B 74 7C 03 00 00 00 00
 9.380000 1  202             Rx   d 4 06 77 00 00
 9.390000 1  200             Rx   d 8 E8 73 7C 04 00 00 00 00
 9.400000 1  200             Rx   d 8 73 73 7C 00 00 00 00 00
 9.400000 1  202             Rx   d 4 06 47 00 00
 9.400000 1  203             Rx   d 8 80 00 00 00 00 00 00 00
 9.400000 1  201             Rx   d 8 F4 01 00 00 00 00 00 00
 9.410000 1  200             Rx   d 8 FC 72 7D 01 00 00 00 00
 9.420000 1  200             Rx   d 8 82 72 7D 02 00 00 00 00
 9.420000 1  202             Rx   d 4 06 17 00 00
 9.430000 1  200             Rx   d 8 06 72 7D 03 00 00 00 00
 9.440000 1  200             Rx   d 8 87 71 7D 04 00 00 00 00
 9.440000 1  202             Rx   d 4 05 E7 00 00
 9.450000 1  200             Rx   d 8 05 71 7D 00 00 00 00 00
 9.460000 1  200             Rx   d 8 81 70 7D 01 00 00 00 00
 9.460000 1  202             Rx   d 4 05 B6 00 00
 9.470000 1  200             Rx   d 8 FB 6F 7D 02 00 00 00 00
 9.480000 1  200             Rx   d 8 73 6F 7D 03 00 00 00 00
 9.480000 1  202             Rx   d 4 05 84 00 00
 9.490000 1  200             Rx   d 8 E8 6E 7D 04 00 00 00 00
 9.500000 1  200             Rx   d 8 5B 6E 7D 00 00 00 00 00
 9.500000 1  202             Rx   d 4 05 52 00 00
 9.500000 1  203             Rx   d 8 80 00 00 00 00 00 00 00
 9.500000 1  201             Rx   d 8 F4 01 00 00 00 00 00 00
 9.500000 1  300             Rx   d 8 DE AD BE EF 00 00 00 00
 9.510000 1  200             Rx   d 8 CC 6D 7D 01 00 00 00 00
 9.520000 1  200             Rx   d 8 3A 6D 7E 02 00 00 00 00
 9.520000 1  202             Rx   d 4 05 1F 00 00
 9.530000 1  200             Rx   d 8 A7 6C 7E 03 00 00 00 00
 9.540000 1  200             Rx   d 8 11 6C 7E 04 00 00 00 00
 9.540000 1  202             Rx   d 4 04 EC 00 00
 9.550000 1  200             Rx   d 8 79 6B 7E 00 00 00 00 00
 9.560000 1  200             Rx   d 8 DF 6A 7E 01 00 00 00 00
 9.560000 1  202             Rx   d 4 04 B9 00 00
 9.570000 1  200             Rx   d 8 43 6A 7E 02 00 00 00 00
 9.580000 1  200             Rx   d 8 A5 69 7E 03 00 00 00 00
 9.580000 1  202             Rx   d 4 04 85 00 00
 9.590000 1  200             Rx   d 8 05 69 7E 04 00 00 00 00
 9.600000 1  200             Rx   d 8 64 68 7E 00 00 00 00 00
 9.600000 1  202             Rx   d 4 04 50 00 00
 9.600000 1  203             Rx   d 8 80 00 00 00 00 00 00 00
 9.600000 1  201             Rx   d 8 F4 01 00 00 00 00 00 00
 9.610000 1  200             Rx   d 8 C0 67 7E 01 00 00 00 00
 9.620000 1  200             Rx   d 8 1B 67 7E 02 00 00 00 00
 9.620000 1  202             Rx   d 4 04 1C 00 00
 9.630000 1  200             Rx   d 8 73 66 7F 03 00 00 00 00
 9.640000 1  200             Rx   d 8 CB 65 7F 04 00 00 00 00
 9.640000 1  202             Rx   d 4 03 E6 00 00
 9.650000 1  200             Rx   d 8 20 65 7F 00 00 00 00 00
 9.660000 1  200             Rx   d 8 74 64 7F 01 00 00 00 00
 9.660000 1  202             Rx   d 4 03 B1 00 00
 9.670000 1  200             Rx   d 8 C6 63 7F 02 00 00 00 00
 9.680000 1  200             Rx   d 8 16 63 7F 03 00 00 00 00
 9.680000 1  202             Rx   d 4 03 7B 00 00
 9.690000 1  200             Rx   d 8 66 62 7F 04 00 00 00 00
 9.700000 1  200             Rx   d 8 B3 61 7F 00 00 00 00 00
 9.700000 1  202             Rx   d 4 03 45 00 00
 9.700000 1  203             Rx   d 8 80 00 00 00 00 00 00 00
 9.700000 1  201             Rx   d 8 F4 01 00 00 00 00 00 00
 9.710000 1  200             Rx   d 8 FF 60 7F 01 00 00 00 00
 9.720000 1  200             Rx   d 8 4A 60 7F 02 00 00 00 00
 9.720000 1  202             Rx   d 4 03 0F 00 00
 9.730000 1  200             Rx   d 8 93 5F 7F 03 00 00 00 00
 9.740000 1  200             Rx   d 8 DB 5E 80 04 00 00 00 00
 9.740000 1  202             Rx   d 4 02 D8 00 00
 9.750000 1  200             Rx   d 8 22 5E 80 00 00 00 00 00
 9.760000 1  200             Rx   d 8 68 5D 80 01 00 00 00 00
 9.760000 1  202             Rx   d 4 02 A1 00 00
 9.770000 1  200             Rx   d 8 AC 5C 80 02 00 00 00 00
 9.780000 1  200             Rx   d 8 F0 5B 80 03 00 00 00 00
 9.780000 1  202             Rx   d 4 02 6A 00 00
 9.790000 1  200             Rx   d 8 32 5B 80 04 00 00 00 00
 9.800000 1  200             Rx   d 8 73 5A 80 00 00 00 00 00
 9.800000 1  202             Rx   d 4 02 32 00 00
 9.800000 1  203             Rx   d 8 80 00 00 00 00 00 00 00
 9.800000 1  201             Rx   d 8 F4 01 00 00 00 00 00 00
 9.810000 1  200             Rx   d 8 B4 59 80 01 00 00 00 00
 9.820000 1  200             Rx   d 8 F3 58 80 02 00 00 00 00
 9.820000 1  202             Rx   d 4 01 FB 00 00
 9.830000 1  200             Rx   d 8 32 58 80 03 00 00 00 00
 9.840000 1  200             Rx   d 8 6F 57 80 04 00 00 00 00
 9.840000 1  202             Rx   d 4 01 C3 00 00
 9.850000 1  200             Rx   d 8 AC 56 81 00 00 00 00 00
 9.860000 1  200             Rx   d 8 E8 55 81 01 00 00 00 00
 9.860000 1  202             Rx   d 4 01 8B 00 00
 9.870000 1  200             Rx   d 8 24 55 81 02 00 00 00 00
 9.880000 1  200             Rx   d 8 5E 54 81 03 00 00 00 00
 9.880000 1  202             Rx   d 4 01 53 00 00
 9.890000 1  200             Rx   d 8 99 53 81 04 00 00 00 00
 9.900000 1  200             Rx   d 8 D2 52 81 00 00 00 00 00
 9.900000 1  202             Rx   d 4 01 1A 00 00
 9.900000 1  203             Rx   d 8 80 00 00 00 00 00 00 00
 9.900000 1  201             Rx   d 8 F4 01 00 00 00 00 00 00
 9.910000 1  200             Rx   d 8 0C 52 81 01 00 00 00 00
 9.920000 1  200             Rx   d 8 44 51 81 02 00 00 00 00
 9.920000 1  202             Rx   d 4 00 E2 00 00
 9.930000 1  200             Rx   d 8 7D 50 81 03 00 00 00 00
 9.940000 1  200             Rx   d 8 B5 4F 81 04 00 00 00 00
 9.940000 1  202             Rx   d 4 00 AA 00 00
 9.950000 1  200             Rx   d 8 EC 4E 82 00 00 00 00 00
 9.960000 1  200             Rx   d 8 24 4E 82 01 00 00 00 00
 9.960000 1  202             Rx   d 4 00 71 00 00
 9.970000 1  200             Rx   d 8 5B 4D 82 02 00 00 00 00
